       frequency          s11_db          s12_db          s13_db          s14_db          s21_db          s22_db          s23_db          s24_db          s31_db          s32_db          s33_db          s34_db          s41_db          s42_db          s43_db          s44_db         s11_deg         s12_deg         s13_deg         s14_deg         s21_deg         s22_deg         s23_deg         s24_deg         s31_deg         s32_deg         s33_deg         s34_deg         s41_deg         s42_deg         s43_deg         s44_deg
  1.20000000e+11 -7.08831236e+00 -7.09267375e+00 -4.27852690e+00 -9.05414803e+00 -7.09267375e+00 -7.09337542e+00 -9.04728701e+00 -4.27825289e+00 -4.27852691e+00 -9.04728701e+00 -7.09342862e+00 -7.09169060e+00 -9.05414803e+00 -4.27825288e+00 -7.09169059e+00 -7.09027314e+00  1.26724276e+02 -6.14784129e+01 -1.22715840e+02 -9.51108533e+01 -6.14784129e+01  1.26775479e+02 -9.50927489e+01 -1.22718193e+02 -1.22715840e+02 -9.50927489e+01  1.26799821e+02 -6.14794253e+01 -9.51108533e+01 -1.22718193e+02 -6.14794252e+01  1.26746367e+02
  1.20079920e+11 -7.09718381e+00 -7.08877204e+00 -4.27509166e+00 -9.05987649e+00 -7.08877205e+00 -7.10226213e+00 -9.05300256e+00 -4.27481751e+00 -4.27509166e+00 -9.05300257e+00 -7.10231398e+00 -7.08778974e+00 -9.05987649e+00 -4.27481751e+00 -7.08778973e+00 -7.09915032e+00  1.26643666e+02 -6.15067579e+01 -1.22812525e+02 -9.51839702e+01 -6.15067580e+01  1.26694900e+02 -9.51658916e+01 -1.22814884e+02 -1.22812525e+02 -9.51658916e+01  1.26719291e+02 -6.15077835e+01 -9.51839702e+01 -1.22814884e+02 -6.15077835e+01  1.26665792e+02
  1.20159840e+11 -7.10608777e+00 -7.08485635e+00 -4.27165700e+00 -9.06562479e+00 -7.08485636e+00 -7.11118143e+00 -9.05873793e+00 -4.27138273e+00 -4.27165701e+00 -9.05873793e+00 -7.11123191e+00 -7.08387490e+00 -9.06562479e+00 -4.27138273e+00 -7.08387490e+00 -7.10806005e+00  1.26562963e+02 -6.15351707e+01 -1.22909266e+02 -9.52571125e+01 -6.15351707e+01  1.26614228e+02 -9.52390599e+01 -1.22911632e+02 -1.22909266e+02 -9.52390599e+01  1.26638669e+02 -6.15362094e+01 -9.52571125e+01 -1.22911632e+02 -6.15362094e+01  1.26585125e+02
  1.20239760e+11 -7.11502437e+00 -7.08092671e+00 -4.26822296e+00 -9.07139302e+00 -7.08092671e+00 -7.12013343e+00 -9.06449319e+00 -4.26794856e+00 -4.26822297e+00 -9.06449319e+00 -7.12018253e+00 -7.07994612e+00 -9.07139302e+00 -4.26794856e+00 -7.07994611e+00 -7.11700244e+00  1.26482168e+02 -6.15636516e+01 -1.23006062e+02 -9.53302801e+01 -6.15636517e+01  1.26533465e+02 -9.53122536e+01 -1.23008436e+02 -1.23006062e+02 -9.53122535e+01  1.26557955e+02 -6.15647034e+01 -9.53302801e+01 -1.23008436e+02 -6.15647034e+01  1.26504365e+02
  1.20319680e+11 -7.12399372e+00 -7.07698313e+00 -4.26478956e+00 -9.07718126e+00 -7.07698313e+00 -7.12911823e+00 -9.07026844e+00 -4.26451503e+00 -4.26478956e+00 -9.07026844e+00 -7.12916595e+00 -7.07600341e+00 -9.07718126e+00 -4.26451503e+00 -7.07600340e+00 -7.12597760e+00  1.26401280e+02 -6.15922012e+01 -1.23102915e+02 -9.54034726e+01 -6.15922012e+01  1.26452608e+02 -9.53854724e+01 -1.23105296e+02 -1.23102915e+02 -9.53854724e+01  1.26477148e+02 -6.15932660e+01 -9.54034727e+01 -1.23105296e+02 -6.15932660e+01  1.26423513e+02
  1.20399600e+11 -7.13299593e+00 -7.07302563e+00 -4.26135682e+00 -9.08298961e+00 -7.07302563e+00 -7.13813596e+00 -9.07606376e+00 -4.26108217e+00 -4.26135682e+00 -9.07606376e+00 -7.13818229e+00 -7.07204679e+00 -9.08298961e+00 -4.26108217e+00 -7.07204678e+00 -7.13498565e+00  1.26320300e+02 -6.16208197e+01 -1.23199824e+02 -9.54766900e+01 -6.16208198e+01  1.26371658e+02 -9.54587162e+01 -1.23202212e+02 -1.23199824e+02 -9.54587161e+01  1.26396248e+02 -6.16218976e+01 -9.54766900e+01 -1.23202212e+02 -6.16218976e+01  1.26342568e+02
  1.20479520e+11 -7.14203111e+00 -7.06905424e+00 -4.25792477e+00 -9.08881816e+00 -7.06905425e+00 -7.14718673e+00 -9.08187925e+00 -4.25765000e+00 -4.25792477e+00 -9.08187925e+00 -7.14723166e+00 -7.06807628e+00 -9.08881816e+00 -4.25765000e+00 -7.06807628e+00 -7.14402669e+00  1.26239226e+02 -6.16495078e+01 -1.23296789e+02 -9.55499319e+01 -6.16495079e+01  1.26290616e+02 -9.55319847e+01 -1.23299184e+02 -1.23296789e+02 -9.55319847e+01  1.26315256e+02 -6.16505988e+01 -9.55499319e+01 -1.23299184e+02 -6.16505988e+01  1.26261530e+02
  1.20559441e+11 -7.15109938e+00 -7.06506898e+00 -4.25449343e+00 -9.09466699e+00 -7.06506899e+00 -7.15627065e+00 -9.08771499e+00 -4.25421855e+00 -4.25449344e+00 -9.08771499e+00 -7.15631418e+00 -7.06409192e+00 -9.09466699e+00 -4.25421854e+00 -7.06409192e+00 -7.15310084e+00  1.26158060e+02 -6.16782659e+01 -1.23393810e+02 -9.56231982e+01 -6.16782659e+01  1.26209480e+02 -9.56052778e+01 -1.23396212e+02 -1.23393810e+02 -9.56052778e+01  1.26234170e+02 -6.16793699e+01 -9.56231982e+01 -1.23396212e+02 -6.16793699e+01  1.26180399e+02
  1.20639361e+11 -7.16020085e+00 -7.06106988e+00 -4.25106284e+00 -9.10053620e+00 -7.06106989e+00 -7.16538784e+00 -9.09357107e+00 -4.25078783e+00 -4.25106284e+00 -9.09357107e+00 -7.16542995e+00 -7.06009372e+00 -9.10053620e+00 -4.25078783e+00 -7.06009371e+00 -7.16220822e+00  1.26076800e+02 -6.17070944e+01 -1.23490888e+02 -9.56964887e+01 -6.17070945e+01  1.26128252e+02 -9.56785952e+01 -1.23493297e+02 -1.23490888e+02 -9.56785952e+01  1.26152992e+02 -6.17082114e+01 -9.56964887e+01 -1.23493297e+02 -6.17082114e+01  1.26099174e+02
  1.20719281e+11 -7.16933564e+00 -7.05705696e+00 -4.24763300e+00 -9.10642587e+00 -7.05705696e+00 -7.17453842e+00 -9.09944759e+00 -4.24735788e+00 -4.24763301e+00 -9.09944759e+00 -7.17457910e+00 -7.05608170e+00 -9.10642587e+00 -4.24735788e+00 -7.05608170e+00 -7.17134895e+00  1.25995447e+02 -6.17359938e+01 -1.23588022e+02 -9.57698031e+01 -6.17359939e+01  1.26046929e+02 -9.57519367e+01 -1.23590438e+02 -1.23588022e+02 -9.57519367e+01  1.26071720e+02 -6.17371238e+01 -9.57698031e+01 -1.23590438e+02 -6.17371238e+01  1.26017857e+02
  1.20799201e+11 -7.17850386e+00 -7.05303024e+00 -4.24420396e+00 -9.11233610e+00 -7.05303024e+00 -7.18372249e+00 -9.10534463e+00 -4.24392872e+00 -4.24420396e+00 -9.10534463e+00 -7.18376174e+00 -7.05205590e+00 -9.11233610e+00 -4.24392872e+00 -7.05205589e+00 -7.18052313e+00  1.25914000e+02 -6.17649646e+01 -1.23685212e+02 -9.58431412e+01 -6.17649646e+01  1.25965514e+02 -9.58253021e+01 -1.23687635e+02 -1.23685212e+02 -9.58253021e+01  1.25990355e+02 -6.17661076e+01 -9.58431412e+01 -1.23687635e+02 -6.17661076e+01  1.25936446e+02
  1.20879121e+11 -7.18770564e+00 -7.04898974e+00 -4.24077573e+00 -9.11826698e+00 -7.04898975e+00 -7.19294018e+00 -9.11126229e+00 -4.24050038e+00 -4.24077573e+00 -9.11126229e+00 -7.19297799e+00 -7.04801633e+00 -9.11826698e+00 -4.24050038e+00 -7.04801632e+00 -7.18973089e+00  1.25832460e+02 -6.17940072e+01 -1.23782458e+02 -9.59165028e+01 -6.17940072e+01  1.25884004e+02 -9.58986911e+01 -1.23784889e+02 -1.23782458e+02 -9.58986911e+01  1.25908896e+02 -6.17951632e+01 -9.59165028e+01 -1.23784889e+02 -6.17951631e+01  1.25854942e+02
  1.20959041e+11 -7.19694108e+00 -7.04493550e+00 -4.23734834e+00 -9.12421860e+00 -7.04493551e+00 -7.20219161e+00 -9.11720065e+00 -4.23707288e+00 -4.23734834e+00 -9.11720065e+00 -7.20222797e+00 -7.04396302e+00 -9.12421860e+00 -4.23707288e+00 -7.04396301e+00 -7.19897234e+00  1.25750826e+02 -6.18231221e+01 -1.23879761e+02 -9.59898877e+01 -6.18231221e+01  1.25802401e+02 -9.59721036e+01 -1.23882199e+02 -1.23879761e+02 -9.59721036e+01  1.25827344e+02 -6.18242910e+01 -9.59898877e+01 -1.23882199e+02 -6.18242910e+01  1.25773344e+02
  1.21038961e+11 -7.20621031e+00 -7.04086754e+00 -4.23392182e+00 -9.13019105e+00 -7.04086754e+00 -7.21147689e+00 -9.12315982e+00 -4.23364625e+00 -4.23392182e+00 -9.12315982e+00 -7.21151178e+00 -7.03989599e+00 -9.13019105e+00 -4.23364624e+00 -7.03989599e+00 -7.20824760e+00  1.25669098e+02 -6.18523097e+01 -1.23977120e+02 -9.60632956e+01 -6.18523097e+01  1.25720704e+02 -9.60455393e+01 -1.23979565e+02 -1.23977120e+02 -9.60455393e+01  1.25745698e+02 -6.18534915e+01 -9.60632956e+01 -1.23979565e+02 -6.18534915e+01  1.25691652e+02
  1.21118881e+11 -7.21551344e+00 -7.03678588e+00 -4.23049618e+00 -9.13618443e+00 -7.03678588e+00 -7.22079614e+00 -9.12913988e+00 -4.23022051e+00 -4.23049619e+00 -9.12913988e+00 -7.22082956e+00 -7.03581528e+00 -9.13618443e+00 -4.23022050e+00 -7.03581527e+00 -7.21755679e+00  1.25587275e+02 -6.18815705e+01 -1.24074536e+02 -9.61367263e+01 -6.18815706e+01  1.25638913e+02 -9.61189980e+01 -1.24076988e+02 -1.24074536e+02 -9.61189980e+01  1.25663958e+02 -6.18827652e+01 -9.61367263e+01 -1.24076988e+02 -6.18827652e+01  1.25609866e+02
  1.21198801e+11 -7.22485059e+00 -7.03269055e+00 -4.22707147e+00 -9.14219882e+00 -7.03269055e+00 -7.23014948e+00 -9.13514092e+00 -4.22679568e+00 -4.22707147e+00 -9.13514092e+00 -7.23018143e+00 -7.03172090e+00 -9.14219882e+00 -4.22679568e+00 -7.03172090e+00 -7.22690003e+00  1.25505359e+02 -6.19109050e+01 -1.24172008e+02 -9.62101795e+01 -6.19109050e+01  1.25557027e+02 -9.61924794e+01 -1.24174468e+02 -1.24172008e+02 -9.61924794e+01  1.25582124e+02 -6.19121126e+01 -9.62101795e+01 -1.24174468e+02 -6.19121126e+01  1.25527987e+02
  1.21278721e+11 -7.23422189e+00 -7.02858157e+00 -4.22364769e+00 -9.14823432e+00 -7.02858157e+00 -7.23953702e+00 -9.14116303e+00 -4.22337180e+00 -4.22364769e+00 -9.14116304e+00 -7.23956749e+00 -7.02761289e+00 -9.14823432e+00 -4.22337180e+00 -7.02761288e+00 -7.23627744e+00  1.25423349e+02 -6.19403136e+01 -1.24269536e+02 -9.62836551e+01 -6.19403136e+01  1.25475047e+02 -9.62659834e+01 -1.24272004e+02 -1.24269536e+02 -9.62659833e+01  1.25500195e+02 -6.19415341e+01 -9.62836551e+01 -1.24272004e+02 -6.19415340e+01  1.25446012e+02
  1.21358641e+11 -7.24362744e+00 -7.02445898e+00 -4.22022488e+00 -9.15429103e+00 -7.02445898e+00 -7.24895890e+00 -9.14720632e+00 -4.21994889e+00 -4.22022489e+00 -9.14720632e+00 -7.24898787e+00 -7.02349126e+00 -9.15429103e+00 -4.21994889e+00 -7.02349126e+00 -7.24568913e+00  1.25341243e+02 -6.19697968e+01 -1.24367122e+02 -9.63571528e+01 -6.19697968e+01  1.25392973e+02 -9.63395095e+01 -1.24369596e+02 -1.24367122e+02 -9.63395095e+01  1.25418173e+02 -6.19710301e+01 -9.63571528e+01 -1.24369596e+02 -6.19710301e+01  1.25363944e+02
  1.21438561e+11 -7.25306737e+00 -7.02032279e+00 -4.21680307e+00 -9.16036903e+00 -7.02032280e+00 -7.25841522e+00 -9.15327087e+00 -4.21652698e+00 -4.21680307e+00 -9.15327087e+00 -7.25844269e+00 -7.01935606e+00 -9.16036903e+00 -4.21652698e+00 -7.01935605e+00 -7.25513522e+00  1.25259044e+02 -6.19993550e+01 -1.24464763e+02 -9.64306723e+01 -6.19993550e+01  1.25310804e+02 -9.64130577e+01 -1.24467245e+02 -1.24464763e+02 -9.64130577e+01  1.25336056e+02 -6.20006011e+01 -9.64306723e+01 -1.24467245e+02 -6.20006011e+01  1.25281781e+02
  1.21518482e+11 -7.26254181e+00 -7.01617305e+00 -4.21338227e+00 -9.16646842e+00 -7.01617305e+00 -7.26790612e+00 -9.15935678e+00 -4.21310608e+00 -4.21338228e+00 -9.15935678e+00 -7.26793207e+00 -7.01520730e+00 -9.16646842e+00 -4.21310608e+00 -7.01520729e+00 -7.26461585e+00  1.25176749e+02 -6.20289887e+01 -1.24562462e+02 -9.65042133e+01 -6.20289888e+01  1.25228541e+02 -9.64866277e+01 -1.24564951e+02 -1.24562462e+02 -9.64866277e+01  1.25253844e+02 -6.20302476e+01 -9.65042134e+01 -1.24564951e+02 -6.20302476e+01  1.25199523e+02
  1.21598402e+11 -7.27205086e+00 -7.01200977e+00 -4.20996252e+00 -9.17258930e+00 -7.01200977e+00 -7.27743171e+00 -9.16546414e+00 -4.20968624e+00 -4.20996252e+00 -9.16546414e+00 -7.27745613e+00 -7.01104501e+00 -9.17258930e+00 -4.20968623e+00 -7.01104501e+00 -7.27413112e+00  1.25094360e+02 -6.20586984e+01 -1.24660217e+02 -9.65777758e+01 -6.20586984e+01  1.25146182e+02 -9.65602192e+01 -1.24662713e+02 -1.24660217e+02 -9.65602192e+01  1.25171538e+02 -6.20599701e+01 -9.65777758e+01 -1.24662713e+02 -6.20599701e+01  1.25117171e+02
  1.21678322e+11 -7.28159466e+00 -7.00783298e+00 -4.20654384e+00 -9.17873175e+00 -7.00783299e+00 -7.28699211e+00 -9.17159304e+00 -4.20626746e+00 -4.20654384e+00 -9.17159304e+00 -7.28701500e+00 -7.00686922e+00 -9.17873175e+00 -4.20626746e+00 -7.00686922e+00 -7.28368116e+00  1.25011875e+02 -6.20884845e+01 -1.24758028e+02 -9.66513593e+01 -6.20884845e+01  1.25063728e+02 -9.66338320e+01 -1.24760532e+02 -1.24758028e+02 -9.66338320e+01  1.25089136e+02 -6.20897689e+01 -9.66513593e+01 -1.24760532e+02 -6.20897689e+01  1.25034724e+02
  1.21758242e+11 -7.29117332e+00 -7.00364272e+00 -4.20312626e+00 -9.18489588e+00 -7.00364273e+00 -7.29658744e+00 -9.17774358e+00 -4.20284978e+00 -4.20312626e+00 -9.17774358e+00 -7.29660879e+00 -7.00267997e+00 -9.18489588e+00 -4.20284978e+00 -7.00267997e+00 -7.29326609e+00  1.24929296e+02 -6.21183475e+01 -1.24855897e+02 -9.67249636e+01 -6.21183475e+01  1.24981179e+02 -9.67074658e+01 -1.24858408e+02 -1.24855897e+02 -9.67074657e+01  1.25006640e+02 -6.21196447e+01 -9.67249637e+01 -1.24858408e+02 -6.21196446e+01  1.24952181e+02
  1.21838162e+11 -7.30078698e+00 -6.99943901e+00 -4.19970979e+00 -9.19108177e+00 -6.99943901e+00 -7.30621784e+00 -9.18391586e+00 -4.19943323e+00 -4.19970980e+00 -9.18391586e+00 -7.30623764e+00 -6.99847727e+00 -9.19108177e+00 -4.19943323e+00 -6.99847727e+00 -7.30288604e+00  1.24846621e+02 -6.21482878e+01 -1.24953822e+02 -9.67985886e+01 -6.21482878e+01  1.24898535e+02 -9.67811203e+01 -1.24956341e+02 -1.24953822e+02 -9.67811203e+01  1.24924049e+02 -6.21495977e+01 -9.67985886e+01 -1.24956341e+02 -6.21495977e+01  1.24869544e+02
  1.21918082e+11 -7.31043574e+00 -6.99522188e+00 -4.19629448e+00 -9.19728953e+00 -6.99522189e+00 -7.31588342e+00 -9.19010996e+00 -4.19601782e+00 -4.19629448e+00 -9.19010996e+00 -7.31590166e+00 -6.99426117e+00 -9.19728953e+00 -4.19601782e+00 -6.99426116e+00 -7.31254113e+00  1.24763851e+02 -6.21783059e+01 -1.25051804e+02 -9.68722338e+01 -6.21783059e+01  1.24815796e+02 -9.68547953e+01 -1.25054330e+02 -1.25051804e+02 -9.68547953e+01  1.24841362e+02 -6.21796285e+01 -9.68722338e+01 -1.25054330e+02 -6.21796284e+01  1.24786811e+02
  1.21998002e+11 -7.32011974e+00 -6.99099136e+00 -4.19288034e+00 -9.20351925e+00 -6.99099137e+00 -7.32558430e+00 -9.19632599e+00 -4.19260360e+00 -4.19288034e+00 -9.19632599e+00 -7.32560097e+00 -6.99003168e+00 -9.20351925e+00 -4.19260359e+00 -6.99003167e+00 -7.32223147e+00  1.24680985e+02 -6.22084022e+01 -1.25149843e+02 -9.69458991e+01 -6.22084022e+01  1.24732960e+02 -9.69284906e+01 -1.25152376e+02 -1.25149843e+02 -9.69284906e+01  1.24758579e+02 -6.22097375e+01 -9.69458991e+01 -1.25152376e+02 -6.22097375e+01  1.24703982e+02
  1.22077922e+11 -7.32983910e+00 -6.98674749e+00 -4.18946740e+00 -9.20977103e+00 -6.98674749e+00 -7.33532062e+00 -9.20256404e+00 -4.18919057e+00 -4.18946740e+00 -9.20256404e+00 -7.33533571e+00 -6.98578884e+00 -9.20977103e+00 -4.18919057e+00 -6.98578884e+00 -7.33195721e+00  1.24598023e+02 -6.22385773e+01 -1.25247938e+02 -9.70195841e+01 -6.22385773e+01  1.24650029e+02 -9.70022058e+01 -1.25250479e+02 -1.25247938e+02 -9.70022058e+01  1.24675702e+02 -6.22399252e+01 -9.70195841e+01 -1.25250479e+02 -6.22399252e+01  1.24621058e+02
  1.22157842e+11 -7.33959394e+00 -6.98249029e+00 -4.18605569e+00 -9.21604495e+00 -6.98249029e+00 -7.34509249e+00 -9.20882421e+00 -4.18577877e+00 -4.18605569e+00 -9.20882421e+00 -7.34510600e+00 -6.98153268e+00 -9.21604495e+00 -4.18577877e+00 -6.98153268e+00 -7.34171846e+00  1.24514965e+02 -6.22688315e+01 -1.25346090e+02 -9.70932887e+01 -6.22688315e+01  1.24567002e+02 -9.70759407e+01 -1.25348639e+02 -1.25346090e+02 -9.70759407e+01  1.24592728e+02 -6.22701921e+01 -9.70932887e+01 -1.25348639e+02 -6.22701920e+01  1.24538038e+02
  1.22237762e+11 -7.34938440e+00 -6.97821979e+00 -4.18264523e+00 -9.22234113e+00 -6.97821979e+00 -7.35490005e+00 -9.21510659e+00 -4.18236823e+00 -4.18264523e+00 -9.21510660e+00 -7.35491196e+00 -6.97726323e+00 -9.22234113e+00 -4.18236823e+00 -6.97726323e+00 -7.35151534e+00  1.24431812e+02 -6.22991654e+01 -1.25444300e+02 -9.71670124e+01 -6.22991654e+01  1.24483879e+02 -9.71496951e+01 -1.25446856e+02 -1.25444300e+02 -9.71496951e+01  1.24509658e+02 -6.23005385e+01 -9.71670125e+01 -1.25446856e+02 -6.23005385e+01  1.24454922e+02
  1.22317682e+11 -7.35921059e+00 -6.97393602e+00 -4.17923604e+00 -9.22865965e+00 -6.97393603e+00 -7.36474342e+00 -9.22141129e+00 -4.17895897e+00 -4.17923605e+00 -9.22141129e+00 -7.36475372e+00 -6.97298053e+00 -9.22865965e+00 -4.17895897e+00 -6.97298053e+00 -7.36134799e+00  1.24348562e+02 -6.23295793e+01 -1.25542566e+02 -9.72407552e+01 -6.23295793e+01  1.24400660e+02 -9.72234686e+01 -1.25545129e+02 -1.25542566e+02 -9.72234686e+01  1.24426493e+02 -6.23309650e+01 -9.72407552e+01 -1.25545129e+02 -6.23309650e+01  1.24371711e+02
  1.22397602e+11 -7.36907264e+00 -6.96963902e+00 -4.17582817e+00 -9.23500061e+00 -6.96963903e+00 -7.37462272e+00 -9.22773839e+00 -4.17555101e+00 -4.17582817e+00 -9.22773839e+00 -7.37463140e+00 -6.96868460e+00 -9.23500061e+00 -4.17555101e+00 -6.96868460e+00 -7.37121653e+00  1.24265215e+02 -6.23600738e+01 -1.25640889e+02 -9.73145166e+01 -6.23600738e+01  1.24317344e+02 -9.72972609e+01 -1.25643460e+02 -1.25640889e+02 -9.72972609e+01  1.24343231e+02 -6.23614721e+01 -9.73145166e+01 -1.25643460e+02 -6.23614721e+01  1.24288402e+02
  1.22477522e+11 -7.37897068e+00 -6.96532883e+00 -4.17242162e+00 -9.24136412e+00 -6.96532883e+00 -7.38453809e+00 -9.23408800e+00 -4.17214439e+00 -4.17242163e+00 -9.23408800e+00 -7.38454514e+00 -6.96437548e+00 -9.24136411e+00 -4.17214439e+00 -6.96437547e+00 -7.38112109e+00  1.24181773e+02 -6.23906492e+01 -1.25739269e+02 -9.73882964e+01 -6.23906493e+01  1.24233932e+02 -9.73710718e+01 -1.25741847e+02 -1.25739269e+02 -9.73710718e+01  1.24259873e+02 -6.23920601e+01 -9.73882964e+01 -1.25741847e+02 -6.23920601e+01  1.24204998e+02
  1.22557443e+11 -7.38890484e+00 -6.96100546e+00 -4.16901644e+00 -9.24775026e+00 -6.96100547e+00 -7.39448965e+00 -9.24046021e+00 -4.16873913e+00 -4.16901644e+00 -9.24046021e+00 -7.39449507e+00 -6.96005319e+00 -9.24775026e+00 -4.16873913e+00 -6.96005319e+00 -7.39106179e+00  1.24098233e+02 -6.24213062e+01 -1.25837706e+02 -9.74620942e+01 -6.24213062e+01  1.24150423e+02 -9.74449011e+01 -1.25840292e+02 -1.25837706e+02 -9.74449010e+01  1.24176418e+02 -6.24227295e+01 -9.74620942e+01 -1.25840292e+02 -6.24227295e+01  1.24121497e+02
  1.22637363e+11 -7.39887524e+00 -6.95666896e+00 -4.16561263e+00 -9.25415914e+00 -6.95666897e+00 -7.40447753e+00 -9.24685512e+00 -4.16533526e+00 -4.16561264e+00 -9.24685512e+00 -7.40448130e+00 -6.95571778e+00 -9.25415914e+00 -4.16533525e+00 -6.95571778e+00 -7.40103877e+00  1.24014597e+02 -6.24520450e+01 -1.25936200e+02 -9.75359099e+01 -6.24520450e+01  1.24066818e+02 -9.75187483e+01 -1.25938793e+02 -1.25936200e+02 -9.75187483e+01  1.24092867e+02 -6.24534809e+01 -9.75359099e+01 -1.25938793e+02 -6.24534809e+01  1.24037899e+02
  1.22717283e+11 -7.40888203e+00 -6.95231936e+00 -4.16221024e+00 -9.26059085e+00 -6.95231936e+00 -7.41450186e+00 -9.25327283e+00 -4.16193279e+00 -4.16221025e+00 -9.25327283e+00 -7.41450397e+00 -6.95136928e+00 -9.26059085e+00 -4.16193279e+00 -6.95136927e+00 -7.41105215e+00  1.23930864e+02 -6.24828662e+01 -1.26034751e+02 -9.76097431e+01 -6.24828662e+01  1.23983115e+02 -9.75926132e+01 -1.26037352e+02 -1.26034751e+02 -9.75926132e+01  1.24009219e+02 -6.24843145e+01 -9.76097431e+01 -1.26037352e+02 -6.24843145e+01  1.23954205e+02
  1.22797203e+11 -7.41892531e+00 -6.94795669e+00 -4.15880929e+00 -9.26704550e+00 -6.94795670e+00 -7.42456277e+00 -9.25971344e+00 -4.15853177e+00 -4.15880929e+00 -9.25971344e+00 -7.42456322e+00 -6.94700771e+00 -9.26704550e+00 -4.15853177e+00 -6.94700771e+00 -7.42110206e+00  1.23847034e+02 -6.25137702e+01 -1.26133358e+02 -9.76835935e+01 -6.25137702e+01  1.23899316e+02 -9.76664956e+01 -1.26135967e+02 -1.26133358e+02 -9.76664955e+01  1.23925474e+02 -6.25152310e+01 -9.76835935e+01 -1.26135967e+02 -6.25152310e+01  1.23870413e+02
