#  GHZ S DB R 50
 1.00000000e+00 -2.808199810689e+01 +3.773704046609e+01 -2.916139688619e-01 -4.115216587794e+00 -3.761258217575e+01 -1.042614267684e+02 -2.683268516121e+01 +8.489745854740e+01 -2.916139688620e-01 -4.115216587794e+00 -2.803202317104e+01 +3.667500315656e+01 -2.680935160087e+01 +8.494314159159e+01 -3.770602508985e+01 -1.073176224318e+02 -3.761258217577e+01 -1.042614267683e+02 -2.680935160087e+01 +8.494314159156e+01 -2.809022628730e+01 +3.899895030624e+01 -2.824501068241e-01 -4.086643881872e+00 -2.683268516120e+01 +8.489745854738e+01 -3.770602508987e+01 -1.073176224317e+02 -2.824501068243e-01 -4.086643881871e+00 -2.800992012426e+01 +3.817701718343e+01
 2.00000000e+00 -2.452983840734e+01 +4.913257929059e+01 -3.795992834742e-01 -7.911740727218e+00 -3.230600723985e+01 -1.106550155680e+02 -2.089801201850e+01 +8.082445228854e+01 -3.795992834742e-01 -7.911740727218e+00 -2.446275935250e+01 +4.660135798133e+01 -2.087221189521e+01 +8.089833156698e+01 -3.236703550372e+01 -1.167436924654e+02 -3.230600723984e+01 -1.106550155681e+02 -2.087221189521e+01 +8.089833156700e+01 -2.447406431198e+01 +4.977693042356e+01 -3.692541255913e-01 -7.854796218434e+00 -2.089801201850e+01 +8.082445228856e+01 -3.236703550372e+01 -1.167436924654e+02 -3.692541255914e-01 -7.854796218433e+00 -2.436041661467e+01 +4.752260937502e+01
 3.00000000e+00 -2.195820639787e+01 +5.205691000305e+01 -4.862320721994e-01 -1.156088741880e+01 -2.920542132698e+01 -1.163802886477e+02 -1.747269423857e+01 +7.675361333030e+01 -4.862320721994e-01 -1.156088741880e+01 -2.190272633299e+01 +4.802525781847e+01 -1.744569704622e+01 +7.684870756737e+01 -2.922040903005e+01 -1.254839902198e+02 -2.920542132698e+01 -1.163802886477e+02 -1.744569704622e+01 +7.684870756736e+01 -2.189349654064e+01 +5.244589438184e+01 -4.753434091347e-01 -1.148279115098e+01 -1.747269423857e+01 +7.675361333030e+01 -2.922040903004e+01 -1.254839902197e+02 -4.753434091348e-01 -1.148279115098e+01 -2.178473071951e+01 +4.872423011916e+01
 4.00000000e+00 -2.005055587061e+01 +5.201437077471e+01 -6.108674167821e-01 -1.512117851117e+01 -2.701057633157e+01 -1.221289508123e+02 -1.507790950985e+01 +7.280767568771e+01 -6.108674167821e-01 -1.512117851117e+01 -2.002445123885e+01 +4.646798196454e+01 -1.505049228461e+01 +7.292506173794e+01 -2.696042997996e+01 -1.341799635087e+02 -2.701057633157e+01 -1.221289508123e+02 -1.505049228461e+01 +7.292506173794e+01 -1.998317818689e+01 +5.227589329732e+01 -6.000029094373e-01 -1.502292654759e+01 -1.507790950985e+01 +7.280767568772e+01 -2.696042997996e+01 -1.341799635087e+02 -6.000029094374e-01 -1.502292654759e+01 -1.990014945090e+01 +4.708239262585e+01
 5.00000000e+00 -1.857437263708e+01 +5.067622364685e+01 -7.542397210430e-01 -1.861731940399e+01 -2.533544083077e+01 -1.279683788906e+02 -1.324730186602e+01 +6.896083051545e+01 -7.542397210430e-01 -1.861731940399e+01 -1.859302295316e+01 +4.358946979700e+01 -1.321968761002e+01 +6.910225395386e+01 -2.519797018197e+01 -1.429103626191e+02 -2.533544083077e+01 -1.279683788906e+02 -1.321968761002e+01 +6.910225395386e+01 -1.850450470241e+01 +5.086289465817e+01 -7.437361544377e-01 -1.849902510940e+01 -1.324730186602e+01 +6.896083051546e+01 -2.519797018197e+01 -1.429103626192e+02 -7.437361544378e-01 -1.849902510940e+01 -1.846422604002e+01 +4.418157111983e+01
 6.00000000e+00 -1.739923887658e+01 +4.868905414771e+01 -9.169600304960e-01 -2.206082607500e+01 -2.400659858369e+01 -1.338472899232e+02 -1.177455672348e+01 +6.519158866124e+01 -9.169600304960e-01 -2.206082607500e+01 -1.747848683305e+01 +4.002455498039e+01 -1.174676245219e+01 +6.535799960678e+01 -2.376067479922e+01 -1.516385262007e+02 -2.400659858369e+01 -1.338472899232e+02 -1.174676245219e+01 +6.535799960678e+01 -1.732596477480e+01 +4.882377147321e+01 -9.070609638956e-01 -2.192259764645e+01 -1.177455672348e+01 +6.519158866124e+01 -2.376067479922e+01 -1.516385262007e+02 -9.070609638957e-01 -2.192259764645e+01 -1.734494357391e+01 +4.062899998621e+01
 7.00000000e+00 -1.644742924473e+01 +4.636051162660e+01 -1.099405387203e+00 -2.545823194794e+01 -2.292763728322e+01 -1.397147241902e+02 -1.054987581124e+01 +6.148823571869e+01 -1.099405387203e+00 -2.545823194794e+01 -1.660481011607e+01 +3.607316499498e+01 -1.052188901570e+01 +6.167982691180e+01 -2.255458830651e+01 -1.603207206391e+02 -2.292763728322e+01 -1.397147241902e+02 -1.052188901570e+01 +6.167982691179e+01 -1.636986268407e+01 +4.645399945999e+01 -1.090314563586e+00 -2.530035989773e+01 -1.054987581124e+01 +6.148823571869e+01 -2.255458830651e+01 -1.603207206391e+02 -1.090314563586e+00 -2.530035989773e+01 -1.646559040384e+01 +3.671171265454e+01
 8.00000000e+00 -1.566941981432e+01 +4.385839593802e+01 -1.301848083782e+00 -2.881463972196e+01 -2.203913332535e+01 -1.455373603759e+02 -9.507459206376e+00 +5.784356077669e+01 -1.301848083782e+00 -2.881463972196e+01 -1.592450421389e+01 +3.189716588826e+01 -9.479320561770e+00 +5.806033340471e+01 -2.152261917208e+01 -1.689276475625e+02 -2.203913332535e+01 -1.455373603759e+02 -9.479320561770e+00 +5.806033340471e+01 -1.558662729535e+01 +4.391627539068e+01 -1.293769754695e+00 -2.863757673449e+01 -9.507459206376e+00 +5.784356077669e+01 -2.152261917208e+01 -1.689276475625e+02 -1.293769754695e+00 -2.863757673449e+01 -1.577849468518e+01 +3.258601663363e+01
 9.00000000e+00 -1.503178954590e+01 +4.128752130496e+01 -1.524677987930e+00 -3.213507119554e+01 -2.130222400091e+01 -1.512903355078e+02 -8.604575622947e+00 +5.425088742049e+01 -1.524677987930e+00 -3.213507119554e+01 -1.540688335896e+01 +2.759388758677e+01 -8.576340562789e+00 +5.449312725371e+01 -2.062819322575e+01 -1.774417395514e+02 -2.130222400091e+01 -1.512903355078e+02 -8.576340562789e+00 +5.449312725370e+01 -1.494272851568e+01 +4.131143683025e+01 -1.517819457608e+00 -3.193930104977e+01 -8.604575622947e+00 +5.425088742049e+01 -2.062819322575e+01 -1.774417395514e+02 -1.517819457608e+00 -3.193930104977e+01 -1.525276863683e+01 +2.834776539619e+01
 1.00000000e+01 -1.451042040978e+01 +3.872012064709e+01 -1.768526996939e+00 -3.542430971810e+01 -2.068974739479e+01 -1.569527147691e+02 -7.811977715193e+00 +5.070332355175e+01 -1.768526996939e+00 -3.542430971810e+01 -1.503169919662e+01 +2.322953782452e+01 -7.783671562895e+00 +5.097147842669e+01 -1.984687327123e+01 +1.741485671893e+02 -2.068974739479e+01 -1.569527147691e+02 -7.783671562894e+00 +5.097147842669e+01 -1.441409664296e+01 +3.870853051039e+01 -1.763087818621e+00 -3.521038910013e+01 -7.811977715193e+00 +5.070332355175e+01 -1.984687327123e+01 +1.741485671893e+02 -1.763087818621e+00 -3.521038910013e+01 -1.486784092298e+01 +2.406309062169e+01
 1.10000000e+01 -1.408707895271e+01 +3.620866661824e+01 -2.034296165804e+00 -3.868678387410e+01 -2.018186457335e+01 -1.625077475359e+02 -7.108821906360e+00 +4.719411039350e+01 -2.034296165804e+00 -3.868678387410e+01 -1.478558803770e+01 +1.885419790621e+01 -7.080443872544e+00 +4.748862282358e+01 -1.916175397731e+01 +1.658503467331e+02 -2.018186457335e+01 -1.625077475359e+02 -7.080443872544e+00 +4.748862282357e+01 -1.398259874084e+01 +3.615789862917e+01 -2.030472091657e+00 -3.845542349762e+01 -7.108821906360e+00 +4.719411039351e+01 -1.916175397731e+01 +1.658503467331e+02 -2.030472091657e+00 -3.845542349761e+01 -1.460996721331e+01 +1.978275190091e+01
 1.20000000e+01 -1.374747838981e+01 +3.379388702403e+01 -2.323199865810e+00 -4.192649404497e+01 -1.976374786630e+01 -1.679411600917e+02 -6.479785966541e+00 +4.371656758147e+01 -2.323199865810e+00 -4.192649404497e+01 -1.466018551216e+01 +1.451028714515e+01 -6.451319978098e+00 +4.403784122938e+01 -1.856098392038e+01 +1.576672289867e+02 -1.976374786630e+01 -1.679411600917e+02 -6.451319978098e+00 +4.403784122938e+01 -1.363403889063e+01 +3.369862310790e+01 -2.321189738352e+00 -4.167859828512e+01 -6.479785966541e+00 +4.371656758147e+01 -1.856098392038e+01 +1.576672289867e+02 -2.321189738352e+00 -4.167859828512e+01 -1.447031165080e+01 +1.555067874980e+01
 1.30000000e+01 -1.347994695526e+01 +3.150959317818e+01 -2.636811888552e+00 -4.514674146218e+01 -1.942405196634e+01 -1.732392171240e+02 -5.913372305607e+00 +4.026411597106e+01 -2.636811888552e+00 -4.514674146218e+01 -1.465104503801e+01 +1.023875042030e+01 -5.884791958528e+00 +4.061252005900e+01 -1.803626728866e+01 +1.496007833238e+02 -1.942405196634e+01 -1.732392171240e+02 -5.884791958528e+00 +4.061252005900e+01 -1.335684019282e+01 +3.136298576693e+01 -2.636822277601e+00 -4.488344108310e+01 -5.913372305607e+00 +4.026411597106e+01 -1.803626728866e+01 +1.496007833238e+02 -2.636822277601e+00 -4.488344108310e+01 -1.444379091681e+01 +1.141014727297e+01
 1.40000000e+01 -1.327448095415e+01 +2.938524555241e+01 -2.977097403882e+00 -4.834974167764e+01 -1.915384521737e+01 -1.783874573509e+02 -5.400846876623e+00 +3.683048749546e+01 -2.977097403882e+00 -4.834974167764e+01 -1.475699834647e+01 +6.084314569640e+00 -5.372117383706e+00 +3.720635987004e+01 -1.758187683922e+01 +1.416517378288e+02 -1.915384521737e+01 -1.783874573509e+02 -5.372117383706e+00 +3.720635987004e+01 -1.314112080610e+01 +2.917891724043e+01 -2.979346500655e+00 -4.807244006947e+01 -5.400846876623e+00 +3.683048749546e+01 -1.758187683922e+01 +1.416517378288e+02 -2.979346500655e+00 -4.807244006947e+01 -1.452834261886e+01 +7.408987843914e+00
 1.50000000e+01 -1.312205648718e+01 +2.744708605495e+01 -3.346432554662e+00 -5.153619590739e+01 -1.894584088053e+01 +1.766300591808e+02 -4.935534839903e+00 +3.341002687156e+01 -3.346432554662e+00 -5.153619590739e+01 -1.497980059507e+01 +2.100850523861e+00 -4.906614184578e+00 +3.381367246013e+01 -1.719397747011e+01 +1.338209562363e+02 -1.894584088053e+01 +1.766300591808e+02 -4.906614184578e+00 +3.381367246012e+01 -1.297802484045e+01 +2.717112518689e+01 -3.351155000026e+00 -5.124663353164e+01 -4.935534839903e+00 +3.341002687156e+01 -1.719397747012e+01 +1.338209562363e+02 -3.351155000027e+00 -5.124663353164e+01 -1.472444073225e+01 +3.604871746218e+00
 1.60000000e+01 -1.301411945285e+01 +2.571825844807e+01 -3.747616271866e+00 -5.470485258353e+01 -1.879381493355e+01 +1.718311442298e+02 -4.512327124941e+00 +2.999801479053e+01 -3.747616271866e+00 -5.470485258353e+01 -1.532396075332e+01 -1.642093637100e+00 -4.483167158112e+00 +3.042970198830e+01 -1.687014625841e+01 +1.261102224281e+02 -1.879381493355e+01 +1.718311442298e+02 -4.483167158112e+00 +3.042970198830e+01 -1.285922854625e+01 +2.536127578883e+01 -3.755070034164e+00 -5.440519126482e+01 -4.512327124941e+00 +2.999801479053e+01 -1.687014625841e+01 +1.261102224281e+02 -3.755070034164e+00 -5.440519126482e+01 -1.503472648459e+01 +7.163304787030e-02
 1.70000000e+01 -1.294221712891e+01 +2.421811362847e+01 -4.183879206010e+00 -5.785207500599e+01 -1.869213891984e+01 +1.672355502179e+02 -4.127316225411e+00 +2.659096947205e+01 -4.183879206010e+00 -5.785207500599e+01 -1.579666265652e+01 -5.050220596786e+00 -4.097863865899e+00 +2.705092640432e+01 -1.660901925446e+01 +1.185228692260e+02 -1.869213891984e+01 +1.672355502179e+02 -4.097863865899e+00 +2.705092640432e+01 -1.277658465980e+01 +2.376742000948e+01 -4.194355461658e+00 -5.754500477602e+01 -4.127316225411e+00 +2.659096947205e+01 -1.660901925446e+01 +1.185228692260e+02 -4.194355461658e+00 -5.754500477602e+01 -1.546361219183e+01 -3.092274885616e+00
 1.80000000e+01 -1.289776712020e+01 +2.296083704901e+01 -4.658895801665e+00 -6.097142187651e+01 -1.863538754822e+01 +1.628646856876e+02 -3.777513569525e+00 +2.318689473799e+01 -4.658895801665e+00 -6.097142187651e+01 -1.640761984607e+01 -7.990768799760e+00 -3.747712097952e+00 +2.367530641254e+01 -1.641002264782e+01 +1.110642682185e+02 -1.863538754822e+01 +1.628646856876e+02 -3.747712097952e+00 +2.367530641254e+01 -1.272189758711e+01 +2.240280287844e+01 -4.672732946352e+00 -6.066029522046e+01 -3.777513569525e+00 +2.318689473799e+01 -1.641002264782e+01 +1.110642682185e+02 -4.672732946352e+00 -6.066029522046e+01 -1.601662849113e+01 -5.751711917814e+00
 1.90000000e+01 -1.287197989404e+01 +2.195358423069e+01 -5.176807632831e+00 -6.405323616513e+01 -1.861800297584e+01 +1.587409199405e+02 -3.460620442186e+00 +1.978544820693e+01 -5.176807632831e+00 -6.405323616513e+01 -1.716849640507e+01 -1.027068316049e+01 -3.430410835765e+00 +2.030245501131e+01 -1.627316315022e+01 +1.037421887257e+02 -1.861800297584e+01 +1.587409199405e+02 -3.430410835765e+00 +2.030245501131e+01 -1.268684058719e+01 +2.127423211171e+01 -5.194411003962e+00 -6.374223726934e+01 -3.460620442186e+00 +1.978544820693e+01 -1.627316315022e+01 +1.037421887257e+02 -5.194411003962e+00 -6.374223726934e+01 -1.669905175974e+01 -7.717194647885e+00
 2.00000000e+01 -1.285595776342e+01 +2.119443283367e+01 -5.742269061001e+00 -6.708421931728e+01 -1.863401493612e+01 +1.548864165149e+02 -3.174836530916e+00 +1.638800868613e+01 -5.742269061001e+00 -6.708421931728e+01 -1.809093727690e+01 -1.160110281937e+01 -3.144158780627e+00 +1.693370637690e+01 -1.619886352520e+01 +9.656703492614e+01 -1.863401493612e+01 +1.548864165149e+02 -3.144158780627e+00 +1.693370637690e+01 -1.266303220660e+01 +2.038028298492e+01 -5.764138734962e+00 -6.677857952801e+01 -3.174836530916e+00 +1.638800868613e+01 -1.619886352520e+01 +9.656703492613e+01 -5.764138734963e+00 -6.677857952801e+01 -1.751280812137e+01 -8.719628788320e+00
