! Created with skrf 1.12.0 (http://scikit-rf.org).
# GHz S RI R 50.0 
!freq ReS11 ImS11 ReS21 ImS21 ReS12 ImS12 ReS22 ImS22
0.1 0.01383076140548746 0.003753950614510585 0.9861660803260921 -0.006267220768586821 0.9861660803260875 -0.00626722076858682 0.013830761405491812 0.003753950614510485
0.1995 0.013902442776814837 0.007488556499475319 0.9860849872950616 -0.012502506861906643 0.9860849872950611 -0.012502506861905053 0.013902442776815184 0.007488556499473798
0.299 0.014021738898502408 0.011222016400317517 0.9859500262200104 -0.01873659993951541 0.9859500262200103 -0.018736599939517127 0.01402173889850247 0.011222016400319286
0.3985 0.014188629915677943 0.014953759083334682 0.9857612172496705 -0.02496890531269636 0.98576121724967 -0.02496890531269808 0.014188629915678406 0.01495375908333636
0.498 0.014403088055901321 0.018683213700647367 0.98551858856766 -0.03119882868074803 0.9855185885676591 -0.031198828680747633 0.014403088055902175 0.018683213700646996
0.5975 0.014665077637562952 0.022409809918348386 0.9852221763840258 -0.03742577625988036 0.9852221763840248 -0.03742577625987915 0.014665077637563946 0.022409809918347116
0.697 0.014974555080706874 0.02613297804444834 0.9848720249244184 -0.043649154911902965 0.984872024924419 -0.0436491549119026 0.0149745550807063 0.026132978044447988
0.7965 0.015331468920226863 0.029852149156579137 0.984468186416865 -0.04986837227263906 0.9844681864168648 -0.049868372272638156 0.015331468920226833 0.02985214915657829
0.896 0.015735759821445688 0.033566755229362 0.9840107210761369 -0.056082836880052105 0.9840107210761366 -0.05608283688005175 0.01573575982144595 0.0335667552293616
0.9955 0.016187360598073235 0.03727622926145965 0.9834996970857655 -0.062291958301992134 0.9834996970857658 -0.062291958301992016 0.01618736059807312 0.03727622926145949
1.095 0.016686196232526214 0.04098000540217796 0.9829351905776741 -0.06849514726356294 0.9829351905776741 -0.06849514726356316 0.0166861962325261 0.04098000540217821
1.1945 0.01723218389860252 0.04467751907763823 0.9823172856094465 -0.07469181577401128 0.9823172856094465 -0.07469181577401167 0.01723218389860252 0.044677519077638596
1.294 0.01782523298649817 0.04836820711642877 0.9816460741392554 -0.08088137725311913 0.9816460741392554 -0.08088137725311904 0.017825232986498133 0.04836820711642864
1.3935 0.01846524513015575 0.0520515078747182 0.9809216559984514 -0.08706324665701884 0.9809216559984516 -0.08706324665701902 0.01846524513015552 0.052051507874718385
1.493 0.019152114236926032 0.05572686136072773 0.9801441388618288 -0.09323684060344452 0.9801441388618286 -0.09323684060344421 0.019152114236926226 0.05572686136072742
1.5925 0.019885726519536556 0.05939370935859023 0.9793136382155885 -0.09940157749627648 0.9793136382155885 -0.09940157749627604 0.019885726519536462 0.05939370935858982
1.692 0.020665960530338128 0.06305149555148296 0.978430277323008 -0.1055568776494158 0.9784302773230082 -0.10555687764941568 0.020665960530337892 0.06305149555148289
1.7915 0.021492687197822612 0.06669966564400982 0.9774941871878372 -0.11170216340990366 0.9774941871878371 -0.11170216340990372 0.021492687197822716 0.06669966564400981
1.891 0.022365769865394368 0.07033766748379625 0.9765055065154444 -0.11783685928022944 0.9765055065154445 -0.11783685928022913 0.02236576986539422 0.07033766748379597
1.9905 0.02328506433235979 0.07396495118222818 0.9754643816717203 -0.12396039203980694 0.9754643816717201 -0.12396039203980692 0.023285064332359898 0.07396495118222818
2.09 0.024250418897138616 0.07758096923431006 0.9743709666397729 -0.13007219086555102 0.974370966639773 -0.1300721908655508 0.02425041889713851 0.0775809692343099
2.1895 0.025261674402653242 0.08118517663757865 0.9732254229744276 -0.13617168745151673 0.9732254229744276 -0.13617168745151687 0.02526167440265332 0.08118517663757877
2.289 0.026318664283889293 0.08477703101003904 0.9720279197545592 -0.14225831612755968 0.9720279197545592 -0.1422583161275599 0.026318664283889362 0.08477703101003925
2.3885 0.02742121461758982 0.08835599270707123 0.9707786335332723 -0.1483315139769653 0.9707786335332721 -0.14833151397696484 0.027421214617589933 0.08835599270707074
2.488 0.02856914417407332 0.09192152493726746 0.9694777482859691 -0.15439072095300532 0.9694777482859693 -0.1543907209530053 0.0285691441740732 0.09192152493726745
2.5875 0.02976226447113353 0.09547309387715744 0.9681254553563143 -0.1604353799943863 0.968125455356314 -0.160435379994386 0.029762264471133535 0.09547309387715718
2.687 0.031000379830010596 0.09901016878477154 0.9667219534001348 -0.16646493713953195 0.966721953400135 -0.16646493713953214 0.031000379830010534 0.0990101687847717
2.7865 0.03228328743338999 0.10253222211201639 0.9652674483272801 -0.17247884163967045 0.9652674483272802 -0.17247884163967023 0.03228328743338994 0.10253222211201618
2.886 0.03361077738541268 0.1060387296157969 0.9637621532414659 -0.1784765460706819 0.9637621532414656 -0.17847654607068167 0.03361077738541281 0.10603872961579662
2.9855 0.03498263277366267 0.10952917046787167 0.9622062883781415 -0.18445750644366246 0.9622062883781416 -0.18445750644366238 0.03498263277366262 0.10952917046787157
3.085 0.03639862973309577 0.1130030273633813 0.9606000810404014 -0.19042118231417074 0.9606000810404013 -0.19042118231417063 0.03639862973309582 0.1130030273633812
3.1845 0.03785853751188982 0.11645978662802117 0.9589437655329777 -0.19636703689011112 0.9589437655329777 -0.19636703689011123 0.03785853751188994 0.11645978662802127
3.284 0.03936211853917203 0.11989893832382023 0.957237583094345 -0.20229453713822285 0.9572375830943449 -0.20229453713822276 0.03936211853917204 0.11989893832382009
3.3835 0.040909128494600155 0.12331997635348074 0.9554817818269719 -0.20820315388913374 0.9554817818269721 -0.20820315388913416 0.04090912849459997 0.12331997635348128
3.483 0.04249931637975423 0.12672239856325873 0.9536766166257479 -0.21409236194094303 0.9536766166257478 -0.2140923619409429 0.042499316379754376 0.12672239856325862
3.5825 0.044132424591314647 0.13010570684432732 0.9518223491046277 -0.2199616401612978 0.9518223491046277 -0.2199616401612978 0.04413242459131491 0.13010570684432723
3.682 0.04580818899598199 0.13346940723261538 0.9499192475215259 -0.22581047158792872 0.9499192475215258 -0.2258104715879287 0.04580818899598204 0.13346940723261538
3.7815 0.04752633900710549 0.1368130100070596 0.9479675867014922 -0.2316383435276155 0.9479675867014922 -0.23163834352761545 0.047526339007105615 0.1368130100070595
3.881 0.04928659766298644 0.14013602978626216 0.9459676479582148 -0.2374447476535399 0.9459676479582148 -0.23744474765354004 0.04928659766298647 0.14013602978626225
3.9805 0.051088681706814645 0.14343798562351048 0.9439197190138805 -0.24322918010100242 0.9439197190138809 -0.2432291801010024 0.05108868170681445 0.14343798562351043
4.08 0.052932301668199754 0.14671840110012235 0.9418240939174356 -0.24899114156147473 0.9418240939174356 -0.24899114156147462 0.052932301668199774 0.14671840110012227
4.1795 0.05481716194626455 0.1499768044171032 0.9396810729612811 -0.2547301373749469 0.9396810729612809 -0.2547301373749469 0.0548171619462645 0.14997680441710332
4.279 0.056742960894250356 0.15321272848507336 0.9374909625964475 -0.2604456776205533 0.9374909625964474 -0.2604456776205533 0.05674296089425048 0.15321272848507328
4.3785 0.05870939090560743 0.15642571101244687 0.935254075346287 -0.2661372772054358 0.9352540753462868 -0.26613727720543545 0.058709390905607624 0.15642571101244637
4.478 0.06071613850151566 0.15961529459182247 0.9329707297187182 -0.27180445595183567 0.9329707297187184 -0.2718044559518357 0.060716138501515686 0.15961529459182244
4.5775 0.06276288441980711 0.16278102678457856 0.9306412501170751 -0.2774467386823729 0.9306412501170751 -0.2774467386823729 0.06276288441980715 0.1627810267845785
4.677 0.06484930370524193 0.16592246020363333 0.9282659667495917 -0.28306365530349153 0.9282659667495918 -0.2830636553034916 0.06484930370524193 0.1659224602036334
4.7765 0.0669750658010965 0.1690391525943544 0.9258452155375712 -0.2886547408870548 0.925845215537571 -0.2886547408870548 0.06697506580109644 0.16903915259435448
4.876 0.06913983464202389 0.17213066691359072 0.9233793380222788 -0.2942195357500606 0.9233793380222787 -0.29421953575006055 0.06913983464202392 0.17213066691359072
4.9755 0.07134326874813923 0.17519657140680953 0.9208686812706001 -0.2997575855324595 0.9208686812706 -0.29975758553245924 0.07134326874813936 0.17519657140680908
5.075 0.07358502132029443 0.17823643968331798 0.9183135977795138 -0.3052684412730482 0.9183135977795136 -0.305268441273048 0.07358502132029467 0.1782364396833177
5.1745 0.07586474033648878 0.18124985078954353 0.9157144453794128 -0.31075165948343464 0.9157144453794126 -0.31075165948343464 0.07586474033648886 0.18124985078954345
5.274 0.07818206864938083 0.18423638928036515 0.9130715871363279 -0.3162068022200383 0.9130715871363277 -0.31620680222003816 0.07818206864938075 0.18423638928036512
5.3735 0.08053664408485173 0.18719564528847216 0.9103853912530899 -0.32163343715411785 0.9103853912530897 -0.32163343715411774 0.08053664408485192 0.18719564528847202
5.473 0.08292809954157995 0.190127214591735 0.9076562309694806 -0.3270311376398125 0.9076562309694806 -0.3270311376398125 0.08292809954158001 0.19012721459173487
5.5725 0.08535606309157599 0.19303069867857228 0.9048844844614107 -0.3323994827801804 0.9048844844614106 -0.3323994827801804 0.0853560630915761 0.19303069867857225
5.672 0.0878201580816431 0.19590570481130923 0.9020705347391771 -0.33773805749121066 0.9020705347391771 -0.3377380574912107 0.08782015808164315 0.19590570481130928
5.7715 0.09032000323570738 0.198751846087498 0.8992147695448373 -0.34304645256381644 0.8992147695448374 -0.34304645256381644 0.09032000323570744 0.19875184608749805
5.871 0.09285521275798127 0.20156874149920814 0.8963175812487505 -0.34832426472377404 0.8963175812487505 -0.34832426472377415 0.09285521275798125 0.20156874149920836
5.9705 0.09542539643691103 0.2043560159902596 0.8933793667453279 -0.35357109668961934 0.8933793667453279 -0.3535710966896192 0.09542539643691093 0.20435601599025954
6.07 0.09803015974986366 0.20711330051139948 0.8904005273480408 -0.3587865572284746 0.8904005273480405 -0.3587865572284745 0.09803015974986375 0.2071133005113993
6.1695 0.10066910396851007 0.20984023207341013 0.8873814686837262 -0.36397026120981024 0.8873814686837262 -0.3639702612098104 0.1006691039685101 0.20984023207341035
6.269 0.10334182626485398 0.2125364537981452 0.8843226005862409 -0.3691218296571253 0.8843226005862408 -0.3691218296571253 0.10334182626485411 0.21253645379814506
6.3685 0.10604791981787004 0.21520161496747883 0.8812243369895046 -0.3742408897975454 0.8812243369895048 -0.37424088979754533 0.10604791981786983 0.21520161496747886
6.468 0.10878697392069592 0.21783537107017525 0.8780870958199821 -0.3793270751093328 0.878087095819982 -0.3793270751093328 0.108786973920696 0.21783537107017517
6.5675 0.11155857408834385 0.22043738384666217 0.874911298888644 -0.3843800253673037 0.874911298888644 -0.3843800253673037 0.11155857408834384 0.22043738384666225
6.667 0.11436230216587515 0.2230073213317188 0.8716973717824549 -0.3893993866861475 0.8716973717824548 -0.38939938668614743 0.11436230216587528 0.22300732133171866
6.7665 0.11719773643700501 0.22554485789506118 0.8684457437554345 -0.39438481156165045 0.8684457437554346 -0.39438481156165045 0.11719773643700483 0.22554485789506132
6.866 0.12006445173308089 0.22804967427983833 0.8651568476193313 -0.39933595890982254 0.8651568476193314 -0.39933595890982254 0.12006445173308099 0.22804967427983824
6.9655 0.12296201954240171 0.2305214576390298 0.8618311196339608 -0.40425249410392133 0.8618311196339609 -0.4042524941039213 0.12296201954240152 0.2305214576390297
7.065 0.12589000811982215 0.23295990156974872 0.8584689993972445 -0.4091340890093852 0.8584689993972446 -0.4091340890093852 0.12589000811982204 0.23295990156974886
7.1645 0.12884798259660762 0.2353647061454593 0.8550709297350019 -0.4139804220166636 0.8550709297350018 -0.41398042201666363 0.12884798259660774 0.23536470614545923
7.264 0.13183550509049125 0.23773557794609584 0.851637356590532 -0.4187911780719665 0.8516373565905319 -0.4187911780719664 0.13183550509049127 0.2377355779460958
7.3635 0.13485213481588695 0.2400722300861062 0.848168728914034 -0.4235660487059168 0.8481687289140342 -0.4235660487059169 0.13485213481588684 0.24007223008610634
7.463 0.13789742819422263 0.24237438224041355 0.8446654985519063 -0.4283047320601273 0.8446654985519065 -0.4283047320601274 0.1378974281942225 0.2423743822404136
7.5625 0.1409709389643438 0.24464176066830498 0.8411281201359679 -0.4330069329116975 0.8411281201359678 -0.4330069329116974 0.14097093896434373 0.24464176066830481
7.662 0.14407221829294797 0.24687409823525405 0.8375570509726452 -0.43767236269564525 0.8375570509726451 -0.43767236269564513 0.14407221829294797 0.2468740982352538
7.7615 0.1472008148850085 0.2490711344326895 0.8339527509321694 -0.44230073952527627 0.8339527509321693 -0.44230073952527615 0.14720081488500836 0.2490711344326894
7.861 0.15035627509414257 0.25123261539571223 0.8303156823378174 -0.44689178821050224 0.8303156823378174 -0.4468917882105021 0.15035627509414248 0.25123261539571207
7.9605 0.15353814303288627 0.253358293918775 0.8266463098552502 -0.451445240274118 0.8266463098552501 -0.451445240274118 0.1535381430328863 0.2533582939187749
8.06 0.15674596068283234 0.2554479294693358 0.822945100381977 -0.45596083396604725 0.8229451003819771 -0.4559608339660473 0.1567459606828323 0.2554479294693358
8.1595 0.1599792680045923 0.2575012881994962 0.8192125229369981 -0.46043831427556886 0.8192125229369982 -0.46043831427556886 0.1599792680045923 0.25750128819949625
8.259 0.16323760304754067 0.2595181429556325 0.8154490485506535 -0.4648774329415385 0.8154490485506535 -0.4648774329415385 0.1632376030475407 0.2595181429556326
8.3585 0.16652050205930452 0.261498273286042 0.8116551501547283 -0.4692779484606169 0.8116551501547286 -0.4692779484606169 0.16652050205930438 0.2614982732860421
8.458 0.16982749959495694 0.26344146544661295 0.8078313024728498 -0.4736396260935165 0.8078313024728497 -0.4736396260935165 0.169827499594957 0.263441465446613
8.5575 0.17315812862587773 0.26534751240453197 0.8039779819112094 -0.477962237869288 0.8039779819112094 -0.477962237869288 0.17315812862587773 0.2653475124045319
8.657 0.17651192064824087 0.26721621384004923 0.8000956664496575 -0.4822455625876581 0.8000956664496576 -0.48224556258765805 0.1765119206482408 0.2672162138400491
8.7565 0.1798884057910948 0.2690473761463161 0.7961848355332005 -0.4864893858194338 0.7961848355332006 -0.48648938581943374 0.1798884057910947 0.269047376146316
8.856 0.18328711292399502 0.2708408124273118 0.7922459699639404 -0.490693499904996 0.7922459699639401 -0.49069349990499594 0.18328711292399502 0.2708408124273118
8.9555 0.18670756976415664 0.27259634249387593 0.7882795517934936 -0.49485770395089534 0.7882795517934936 -0.4948577039508954 0.18670756976415673 0.272596342493876
9.055 0.19014930298308716 0.2743137928578738 0.7842860642159221 -0.4989818038245712 0.7842860642159221 -0.49898180382457136 0.19014930298308722 0.27431379285787394
9.1545 0.193611838312668 0.27599299672450006 0.7802659914612151 -0.5030656121472149 0.780265991461215 -0.5030656121472149 0.19361183831266796 0.2759929967245001
9.254 0.19709470065064816 0.27763379398275506 0.7762198186893521 -0.5071089482847929 0.7762198186893521 -0.5071089482847929 0.1970947006506482 0.2776337939827551
9.3535 0.20059741416551824 0.2792360311941066 0.7721480318849864 -0.5111116383372567 0.7721480318849862 -0.5111116383372567 0.20059741416551835 0.2792360311941065
9.453 0.20411950240072865 0.280799561579358 0.7680511177527745 -0.515073515125956 0.7680511177527743 -0.515073515125956 0.20411950240072868 0.2807995615793581
9.5525 0.20766048837822362 0.28232424500375314 0.7639295636133903 -0.518994418179279 0.7639295636133903 -0.518994418179279 0.20766048837822362 0.28232424500375325
9.652 0.21121989470125654 0.2838099479603297 0.7597838573002547 -0.5228741937165441 0.7597838573002546 -0.5228741937165441 0.21121989470125657 0.2838099479603296
9.7515 0.21479724365645625 0.2852565435515505 0.7556144870570086 -0.5267126946301635 0.7556144870570084 -0.5267126946301636 0.21479724365645642 0.28525654355155056
9.851 0.21839205731511485 0.2866639114692401 0.751421941435761 -0.5305097804661045 0.751421941435761 -0.5305097804661044 0.21839205731511474 0.28666391146924
9.9505 0.2220038576336656 0.2880319379728403 0.7472067091961457 -0.534265317402673 0.7472067091961457 -0.534265317402673 0.22200385763366556 0.28803193797284016
10.05 0.2256321665533248 0.28936051586602174 0.7429692792052083 -0.53797917822764 0.7429692792052082 -0.5379791782276397 0.22563216655332477 0.2893605158660216
10.1495 0.22927650609886613 0.29064954447166613 0.7387101403381567 -0.5416512423137443 0.7387101403381569 -0.5416512423137443 0.22927650609886607 0.2906495444716662
10.249 0.23293639847650496 0.2918989296052542 0.7344297813800045 -0.5452813955925915 0.7344297813800046 -0.5452813955925915 0.23293639847650485 0.2918989296052544
10.3485 0.23661136617085815 0.2931085835466795 0.7301286909281245 -0.5488695305269715 0.7301286909281245 -0.5488695305269716 0.2366113661708581 0.29310858354667957
10.448 0.24030093204096348 0.2942784250105149 0.7258073572957512 -0.5524155460816363 0.7258073572957512 -0.5524155460816365 0.24030093204096348 0.29427842501051493
10.5475 0.24400461941532428 0.29540837911476486 0.7214662684164458 -0.5559193476925456 0.7214662684164459 -0.5559193476925458 0.24400461941532436 0.29540837911476503
10.647 0.2477219521859608 0.29649837734812345 0.7171059117495565 -0.5593808472346239 0.7171059117495567 -0.559380847234624 0.2477219521859607 0.29649837734812345
10.7465 0.25145245490144236 0.2975483575357701 0.7127267741866917 -0.5627999629880487 0.7127267741866917 -0.5627999629880488 0.2514524549014424 0.29754835753577014
10.846 0.25519565285887824 0.2985582638037324 0.7083293419592346 -0.5661766196030974 0.7083293419592347 -0.5661766196030975 0.25519565285887824 0.2985582638037325
10.9455 0.2589510721948438 0.2995280465418405 0.7039141005469158 -0.5695107480635881 0.7039141005469158 -0.5695107480635881 0.2589510721948438 0.29952804654184045
11.045 0.2627182399752227 0.3004576623653042 0.6994815345874704 -0.572802285648935 0.6994815345874705 -0.5728022856489352 0.2627182399752228 0.3004576623653045
11.1445 0.26649668428394263 0.301347074074944 0.6950321277873945 -0.5760511758948543 0.6950321277873946 -0.5760511758948543 0.26649668428394263 0.3013470740749441
11.244 0.27028593431058545 0.3021962506160994 0.6905663628338284 -0.579257368552744 0.6905663628338286 -0.5792573685527441 0.2702859343105854 0.30219625061609945
11.3435 0.2740855204368543 0.30300516703625174 0.6860847213075776 -0.582420819547773 0.6860847213075777 -0.5824208195477731 0.2740855204368544 0.30300516703625197
11.443 0.2778949743218769 0.30377380444138563 0.6815876835972958 -0.5855414909357038 0.6815876835972959 -0.5855414909357037 0.2778949743218768 0.3037738044413857
11.5425 0.28171382898632796 0.3045021499511196 0.6770757288148431 -0.5886193508584832 0.6770757288148432 -0.5886193508584833 0.281713828986328 0.3045021499511198
11.642 0.28554161889535684 0.3051901966526399 0.6725493347118411 -0.5916543734986286 0.6725493347118411 -0.5916543734986287 0.28554161889535684 0.3051901966526399
11.7415 0.2893778800403009 0.30583794355346344 0.6680089775974356 -0.5946465390324415 0.6680089775974357 -0.5946465390324416 0.28937788004030096 0.3058379435534635
11.841 0.29322215001917096 0.3064453955330632 0.6634551322572861 -0.597595833582076 0.6634551322572861 -0.597595833582076 0.29322215001917096 0.30644539553306316
11.9405 0.2970739681158955 0.30701256329338433 0.6588882718737921 -0.6005022491664986 0.6588882718737921 -0.6005022491664986 0.2970739681158954 0.3070125632933842
