! Created Thu Feb 13 17:52:52 2025
# hz S ma R 50
! 2 Port Network Data from SP1.SP block
! freq  magS11  angS11  magS21  angS21  magS12  angS12  magS22  angS22  
!     
1e+09       0.994159347        -6.42069567        0.106953197         83.6321477        0.106953197         83.6321477        0.994163925        -6.20488416
1.25e+09       0.990919743        -8.00850422        0.133247181         82.0575246        0.133247181         82.0575246        0.990926853        -7.73876314
1.5e+09       0.987003991        -9.58495991        0.159252118         80.4942385        0.159252118         80.4942385        0.987014151        -9.26130452
1.75e+09       0.982437107        -11.1480098        0.184917126         78.9443397        0.184917126         78.9443397        0.982450816        -10.7704582
2e+09       0.977247593         -12.695712        0.210194809         77.4097681        0.210194809         77.4097681        0.977265322         -12.264285
2.25e+09        0.97146696        -14.2262481        0.235041623         75.8923405        0.235041623         75.8923405        0.971489153         -13.740969
2.5e+09       0.965129239         -15.737933        0.259418146         74.3937404        0.259418146         74.3937404        0.965156311        -15.1988276
2.75e+09       0.958270466         -17.229223        0.283289268         72.9155101        0.283289268         72.9155101        0.958302802        -16.6363195
3e+09       0.950928177        -18.6987209        0.306624302         71.4590457        0.306624302         71.4590457        0.950966133        -18.0520497
3.25e+09       0.943140908        -20.1451792         0.32939701         70.0255937         0.32939701         70.0255937         0.94318481        -19.4447727
3.5e+09       0.934947721        -21.5675005        0.351585557         68.6162506        0.351585557         68.6162506         0.93499787         -20.813393
3.75e+09       0.926387764        -22.9647366        0.373172405         67.2319636        0.373172405         67.2319636        0.926444432        -22.1569646
4e+09       0.917499868        -24.3360854        0.394144148          65.873534        0.394144148          65.873534        0.917563303         -23.474687
4.25e+09       0.908322183        -25.6808864        0.414491302         64.5416214        0.414491302         64.5416214         0.90839261        -24.7659015
4.5e+09       0.898891866        -26.9986145        0.434208061           63.23675        0.434208061           63.23675         0.89896949        -26.0300849
4.75e+09       0.889244818        -28.2888738         0.45329202          61.959315         0.45329202          61.959315        0.889329825        -27.2668428
5e+09       0.879415459        -29.5513888        0.471743892         60.7095907        0.471743892         60.7095907        0.879508019        -28.4759017
5.25e+09       0.869436562        -30.7859972        0.489567201         59.4877387        0.489567201         59.4877387        0.869536829        -29.6571008
5.5e+09       0.859339113        -31.9926403        0.506767982         58.2938168        0.506767982         58.2938168         0.85944723        -30.8103831
5.75e+09       0.849152228        -33.1713546        0.523354484         57.1277875        0.523354484         57.1277875        0.849268327        -31.9357869
6e+09       0.838903095        -34.3222627        0.539336875         55.9895273        0.539336875         55.9895273        0.839027297        -33.0334367
6.25e+09       0.828616949        -35.4455645        0.554726966         54.8788352        0.554726966         54.8788352        0.828749369        -34.1035342
6.5e+09       0.818317079         -36.541529        0.569537948         53.7954416        0.569537948         53.7954416        0.818457823        -35.1463501
6.75e+09       0.808024853        -37.6104854        0.583784149         52.7390161        0.583784149         52.7390161        0.808174022        -36.1622158
7e+09       0.797759763        -38.6528162        0.597480801         51.7091755        0.597480801         51.7091755        0.797917454        -37.1515155
7.25e+09       0.787539492        -39.6689488        0.610643844         50.7054914        0.610643844         50.7054914        0.787705796        -38.1146789
7.5e+09       0.777379982        -40.6593497        0.623289729         49.7274966        0.623289729         49.7274966        0.777554989        -39.0521742
7.75e+09       0.767295525        -41.6245172        0.635435262         48.7746919        0.635435262         48.7746919        0.767479318        -39.9645021
8e+09       0.757298844        -42.5649763        0.647097448         47.8465516        0.647097448         47.8465516        0.757491504        -40.8521897
8.25e+09       0.747401192        -43.4812727        0.658293367          46.942529        0.658293367          46.942529        0.747602798        -41.7157849
8.5e+09       0.737612447        -44.3739687         0.66904006         46.0620613         0.66904006         46.0620613        0.737823074        -42.5558522
8.75e+09       0.727941206        -45.2436382        0.679354434         45.2045737        0.679354434         45.2045737        0.728160927        -43.3729677
9e+09       0.718394882        -46.0908633        0.689253178         44.3694838        0.689253178         44.3694838        0.718623767        -44.1677158
9.25e+09       0.708979795        -46.9162303        0.698752698         43.5562042        0.698752698         43.5562042         0.70921791        -44.9406854
9.5e+09       0.699701263        -47.7203274        0.707869058         42.7641463        0.707869058         42.7641463        0.699948672        -45.6924667
9.75e+09       0.690563687        -48.5037414        0.716617937         41.9927227        0.716617937         41.9927227        0.690820451        -46.4236489
1e+10       0.681570633        -49.2670557         0.72501459         41.2413495         0.72501459         41.2413495        0.681836808        -47.1348178
1.025e+10       0.672724908        -50.0108482        0.733073823         40.5094482        0.733073823         40.5094482        0.673000549        -47.8265537
1.05e+10       0.664028637        -50.7356896        0.740809971         39.7964474        0.740809971         39.7964474        0.664313795        -48.4994296
1.075e+10       0.655483328        -51.4421422        0.748236887         39.1017848        0.748236887         39.1017848         0.65577805          -49.15401
1.1e+10       0.647089934        -52.1307581         0.75536793         38.4249074         0.75536793         38.4249074        0.647394264        -49.7908496
1.125e+10       0.638848915        -52.8020789        0.762215964         37.7652733        0.762215964         37.7652733        0.639162894        -50.4104921
1.15e+10        0.63076029        -53.4566345        0.768793356         37.1223523        0.768793356         37.1223523        0.631083954        -51.0134698
1.175e+10       0.622823688        -54.0949424        0.775111982         36.4956262        0.775111982         36.4956262         0.62315707        -51.6003024
1.2e+10       0.615038394        -54.7175075        0.781183233           35.88459        0.781183233           35.88459        0.615381524        -52.1714973
1.225e+10       0.607403389        -55.3248216        0.787018024         35.2887514        0.787018024         35.2887514        0.607756294        -52.7275483
1.25e+10       0.599917391        -55.9173632        0.792626801         34.7076316        0.792626801         34.7076316        0.600280093        -53.2689361
1.275e+10       0.592578888        -56.4955972        0.798019558         34.1407654        0.798019558         34.1407654        0.592951406        -53.7961279
1.3e+10       0.585386168        -57.0599748        0.803205847         33.5877011        0.803205847         33.5877011        0.585768519        -54.3095772
1.325e+10       0.578337352        -57.6109341        0.808194793         33.0480004        0.808194793         33.0480004        0.578729548         -54.809724
1.35e+10       0.571430416        -58.1488993        0.812995108         32.5212388        0.812995108         32.5212388        0.571832466        -55.2969948
1.375e+10       0.564663214        -58.6742816        0.817615106         32.0070048        0.817615106         32.0070048        0.565075125        -55.7718026
1.4e+10         0.5580335        -59.1874787        0.822062719         31.5049003        0.822062719         31.5049003        0.558455275        -56.2345475
1.425e+10       0.551538948        -59.6888757        0.826345509         31.0145401        0.826345509         31.0145401        0.551970588        -56.6856165
1.45e+10       0.545177167        -60.1788448        0.830470688         30.5355516        0.830470688         30.5355516         0.54561867        -57.1253836
1.475e+10       0.538945714        -60.6577457        0.834445128         30.0675747        0.834445128         30.0675747        0.539397075        -57.5542109
1.5e+10       0.532842112        -61.1259263        0.838275379         29.6102617        0.838275379         29.6102617        0.533303323        -57.9724477
1.525e+10       0.526863858        -61.5837222        0.841967682         29.1632763        0.841967682         29.1632763         0.52733491        -58.3804319
1.55e+10       0.521008432        -62.0314577        0.845527982          28.726294        0.845527982          28.726294        0.521489313        -58.7784895
1.575e+10       0.515273313        -62.4694459        0.848961943         28.2990015        0.848961943         28.2990015        0.515764009        -59.1669356
1.6e+10       0.509655979        -62.8979891        0.852274962         27.8810965        0.852274962         27.8810965        0.510156474        -59.5460741
1.625e+10       0.504153919        -63.3173788        0.855472178          27.472287        0.855472178          27.472287        0.504664195        -59.9161985
1.65e+10       0.498764637        -63.7278964         0.85855849         27.0722914         0.85855849         27.0722914        0.499284675        -60.2775918
1.675e+10       0.493485658        -64.1298136        0.861538561         26.6808378        0.861538561         26.6808378        0.494015437        -60.6305275
1.7e+10       0.488314534        -64.5233921        0.864416836         26.2976643        0.864416836         26.2976643        0.488854031         -60.975269
1.725e+10       0.483248845        -64.9088847        0.867197551         25.9225177        0.867197551         25.9225177        0.483798035        -61.3120709
1.75e+10       0.478286204        -65.2865353        0.869884741         25.5551542        0.869884741         25.5551542        0.478845063        -61.6411786
1.775e+10       0.473424261        -65.6565789        0.872482252         25.1953383        0.872482252         25.1953383        0.473992761        -61.9628288
1.8e+10       0.468660701        -66.0192425        0.874993749         24.8428429        0.874993749         24.8428429        0.469238816        -62.2772501
1.825e+10       0.463993253        -66.3747449        0.877422728          24.497449        0.877422728          24.497449        0.464580954        -62.5846628
1.85e+10       0.459419684        -66.7232971         0.87977252         24.1589453         0.87977252         24.1589453        0.460016942        -62.8852797
1.875e+10       0.454937806         -67.065103        0.882046302         23.8271278        0.882046302         23.8271278         0.45554459        -63.1793059
1.9e+10       0.450545474        -67.4003589        0.884247105         23.5017999        0.884247105         23.5017999        0.451161754        -63.4669395
1.925e+10       0.446240588        -67.7292546        0.886377819         23.1827717        0.886377819         23.1827717        0.446866331        -63.7483715
1.95e+10       0.442021091         -68.051973        0.888441204           22.86986        0.888441204           22.86986        0.442656265        -64.0237866
1.975e+10       0.437884972        -68.3686907         0.89043989         22.5628881         0.89043989         22.5628881        0.438529546        -64.2933625
2e+10       0.433830268        -68.6795781        0.892376392         22.2616854        0.892376392         22.2616854        0.434484207        -64.5572713
2.025e+10       0.429855057        -68.9847998        0.894253109          21.966087        0.894253109          21.966087        0.430518327        -64.8156788
2.05e+10       0.425957464        -69.2845145         0.89607233         21.6759341         0.89607233         21.6759341        0.426630032        -65.0687453
2.075e+10       0.422135658        -69.5788756        0.897836245         21.3910731        0.897836245         21.3910731         0.42281749        -65.3166253
2.1e+10       0.418387853        -69.8680313        0.899546945         21.1113557        0.899546945         21.1113557        0.419078915        -65.5594684
2.125e+10       0.414712307        -70.1521244        0.901206427         20.8366388        0.901206427         20.8366388        0.415412563        -65.7974189
2.15e+10       0.411107319        -70.4312932        0.902816601          20.566784        0.902816601          20.566784        0.411816735        -66.0306161
2.175e+10       0.407571234         -70.705671        0.904379294         20.3016578        0.904379294         20.3016578        0.408289774        -66.2591948
2.2e+10       0.404102434        -70.9753868        0.905896252          20.041131        0.905896252          20.041131        0.404830065        -66.4832852
2.225e+10       0.400699347        -71.2405653        0.907369145         19.7850789        0.907369145         19.7850789        0.401436032        -66.7030131
2.25e+10       0.397360439        -71.5013268        0.908799571         19.5333809        0.908799571         19.5333809        0.398106143           -66.9185
2.275e+10       0.394084215        -71.7577876        0.910189061         19.2859206        0.910189061         19.2859206        0.394838903        -67.1298638
2.3e+10        0.39086922        -72.0100605        0.911539078         19.0425851        0.911539078         19.0425851        0.391632857        -67.3372179
2.325e+10       0.387714036        -72.2582542        0.912851026         18.8032655        0.912851026         18.8032655        0.388486586        -67.5406724
2.35e+10       0.384617283        -72.5024739        0.914126246         18.5678564        0.914126246         18.5678564        0.385398711        -67.7403338
2.375e+10       0.381577616        -72.7428215        0.915366025         18.3362559        0.915366025         18.3362559        0.382367887        -67.9363048
2.4e+10       0.378593726        -72.9793955        0.916571597         18.1083654        0.916571597         18.1083654        0.379392805        -68.1286851
2.425e+10       0.375664339        -73.2122912        0.917744143         17.8840894        0.917744143         17.8840894        0.376472191        -68.3175711
2.45e+10       0.372788213        -73.4416008        0.918884796         17.6633356        0.918884796         17.6633356        0.373604803        -68.5030561
2.475e+10       0.369964141        -73.6674137        0.919994643         17.4460145        0.919994643         17.4460145        0.370789434        -68.6852304
2.5e+10       0.367190946        -73.8898162        0.921074725         17.2320397        0.921074725         17.2320397        0.368024907        -68.8641815
2.525e+10       0.364467484        -74.1088922        0.922126044         17.0213272        0.922126044         17.0213272        0.365310078        -69.0399941
2.55e+10       0.361792639        -74.3247226        0.923149559         16.8137959        0.923149559         16.8137959        0.362643832        -69.2127501
2.575e+10       0.359165326        -74.5373861        0.924146191         16.6093671        0.924146191         16.6093671        0.360025084        -69.3825293
2.6e+10       0.356584489        -74.7469588        0.925116824         16.4079648        0.925116824         16.4079648        0.357452777        -69.5494084
2.625e+10         0.3540491        -74.9535143        0.926062309         16.2095151        0.926062309         16.2095151        0.354925883        -69.7134623
2.65e+10       0.351558156        -75.1571242        0.926983462         16.0139464        0.926983462         16.0139464        0.352443401        -69.8747632
2.675e+10       0.349110684        -75.3578577        0.927881068         15.8211894        0.927881068         15.8211894        0.350004356        -70.0333814
2.7e+10       0.346705732         -75.555782        0.928755879         15.6311769        0.928755879         15.6311769        0.347607798        -70.1893849
2.725e+10       0.344342378        -75.7509624        0.929608622         15.4438436        0.929608622         15.4438436        0.345252804        -70.3428395
2.75e+10       0.342019722        -75.9434618        0.930439992         15.2591264        0.930439992         15.2591264        0.342938473        -70.4938095
2.775e+10       0.339736886        -76.1333417        0.931250661         15.0769638        0.931250661         15.0769638        0.340663929        -70.6423567
2.8e+10       0.337493017        -76.3206615        0.932041274         14.8972965        0.932041274         14.8972965        0.338428319        -70.7885415
2.825e+10       0.335287283         -76.505479         0.93281245         14.7200666         0.93281245         14.7200666        0.336230811        -70.9324223
2.85e+10       0.333118876        -76.6878501        0.933564788         14.5452181        0.933564788         14.5452181        0.334070595         -71.074056
2.875e+10       0.330987007        -76.8678293        0.934298863         14.3726967        0.934298863         14.3726967        0.331946884        -71.2134975
2.9e+10       0.328890907        -77.0454693        0.935015229         14.2024495        0.935015229         14.2024495        0.329858909        -71.3508004
2.925e+10       0.326829827        -77.2208214        0.935714418         14.0344252        0.935714418         14.0344252        0.327805921        -71.4860166
2.95e+10        0.32480304        -77.3939354        0.936396947         13.8685741        0.936396947         13.8685741        0.325787192        -71.6191967
2.975e+10       0.322809833        -77.5648598        0.937063308         13.7048477        0.937063308         13.7048477        0.323802012        -71.7503896
3e+10       0.320849516        -77.7336415        0.937713981          13.543199        0.937713981          13.543199        0.321849687        -71.8796429
3.025e+10       0.318921413        -77.9003262        0.938349425         13.3835825        0.938349425         13.3835825        0.319929543         -72.007003
3.05e+10       0.317024866        -78.0649583        0.938970085         13.2259537        0.938970085         13.2259537        0.318040924        -72.1325149
3.075e+10       0.315159236        -78.2275811        0.939576388         13.0702695        0.939576388         13.0702695        0.316183187        -72.2562222
3.1e+10       0.313323897        -78.3882364        0.940168748         12.9164879        0.940168748         12.9164879         0.31435571        -72.3781675
3.125e+10       0.311518241        -78.5469651        0.940747562         12.7645682        0.940747562         12.7645682        0.312557881        -72.4983921
3.15e+10       0.309741673         -78.703807        0.941313216         12.6144707        0.941313216         12.6144707        0.310789109        -72.6169362
3.175e+10       0.307993615        -78.8588005        0.941866082         12.4661568        0.941866082         12.4661568        0.309048814         -72.733839
