#   Hz   S  RI   R   50
!
0.000000e+00 1.112073e-02 0.000000e+00 9.804685e-01 0.000000e+00 9.804682e-01 0.000000e+00 1.113043e-02 0.000000e+00
7.500000e+07 1.118059e-02 7.147931e-03 9.803972e-01 -8.176947e-03 9.803970e-01 -8.176941e-03 1.119032e-02 7.143782e-03
1.500000e+08 1.136012e-02 1.429320e-02 9.801837e-01 -1.634956e-02 9.801834e-01 -1.634955e-02 1.136993e-02 1.428490e-02
2.250000e+08 1.165918e-02 2.143315e-02 9.798282e-01 -2.451354e-02 9.798279e-01 -2.451352e-02 1.166912e-02 2.142070e-02
3.000000e+08 1.207752e-02 2.856513e-02 9.793313e-01 -3.266461e-02 9.793310e-01 -3.266458e-02 1.208766e-02 2.854853e-02
3.750000e+08 1.261482e-02 3.568653e-02 9.786938e-01 -4.079855e-02 9.786936e-01 -4.079852e-02 1.262520e-02 3.566577e-02
4.500000e+08 1.327065e-02 4.279473e-02 9.779168e-01 -4.891124e-02 9.779166e-01 -4.891120e-02 1.328134e-02 4.276981e-02
5.250000e+08 1.404450e-02 4.988716e-02 9.770016e-01 -5.699861e-02 9.770013e-01 -5.699857e-02 1.405554e-02 4.985808e-02
6.000000e+08 1.493577e-02 5.696128e-02 9.759495e-01 -6.505675e-02 9.759493e-01 -6.505670e-02 1.494722e-02 5.692803e-02
6.750000e+08 1.594377e-02 6.401459e-02 9.747623e-01 -7.308184e-02 9.747621e-01 -7.308178e-02 1.595569e-02 6.397716e-02
7.500000e+08 1.706774e-02 7.104463e-02 9.734418e-01 -8.107021e-02 9.734416e-01 -8.107014e-02 1.708019e-02 7.100301e-02
8.250000e+08 1.830685e-02 7.804898e-02 9.719900e-01 -8.901833e-02 9.719898e-01 -8.901826e-02 1.831987e-02 7.800317e-02
9.000000e+08 1.966019e-02 8.502528e-02 9.704090e-01 -9.692285e-02 9.704088e-01 -9.692278e-02 1.967384e-02 8.497527e-02
9.750000e+08 2.112678e-02 9.197122e-02 9.687011e-01 -1.047806e-01 9.687009e-01 -1.047805e-01 2.114112e-02 9.191699e-02
1.050000e+09 2.270558e-02 9.888455e-02 9.668687e-01 -1.125885e-01 9.668685e-01 -1.125884e-01 2.272067e-02 9.882610e-02
1.125000e+09 2.439550e-02 1.057631e-01 9.649144e-01 -1.203438e-01 9.649142e-01 -1.203437e-01 2.441139e-02 1.057004e-01
1.200000e+09 2.619539e-02 1.126046e-01 9.628406e-01 -1.280437e-01 9.628404e-01 -1.280437e-01 2.621214e-02 1.125377e-01
1.275000e+09 2.810406e-02 1.194071e-01 9.606501e-01 -1.356860e-01 9.606499e-01 -1.356859e-01 2.812172e-02 1.193359e-01
1.350000e+09 3.012026e-02 1.261686e-01 9.583455e-01 -1.432682e-01 9.583453e-01 -1.432681e-01 3.013890e-02 1.260931e-01
1.425000e+09 3.224271e-02 1.328871e-01 9.559296e-01 -1.507882e-01 9.559294e-01 -1.507881e-01 3.226238e-02 1.328073e-01
1.500000e+09 3.447011e-02 1.395606e-01 9.534052e-01 -1.582442e-01 9.534050e-01 -1.582441e-01 3.449086e-02 1.394765e-01
1.575000e+09 3.680110e-02 1.461874e-01 9.507749e-01 -1.656345e-01 9.507748e-01 -1.656344e-01 3.682299e-02 1.460990e-01
1.650000e+09 3.923432e-02 1.527657e-01 9.480417e-01 -1.729574e-01 9.480415e-01 -1.729573e-01 3.925740e-02 1.526729e-01
1.725000e+09 4.176836e-02 1.592937e-01 9.452082e-01 -1.802116e-01 9.452080e-01 -1.802115e-01 4.179269e-02 1.591965e-01
1.800000e+09 4.440180e-02 1.657698e-01 9.422771e-01 -1.873959e-01 9.422769e-01 -1.873958e-01 4.442744e-02 1.656682e-01
1.875000e+09 4.713322e-02 1.721923e-01 9.392510e-01 -1.945091e-01 9.392509e-01 -1.945089e-01 4.716021e-02 1.720862e-01
1.950000e+09 4.996115e-02 1.785598e-01 9.361327e-01 -2.015503e-01 9.361326e-01 -2.015501e-01 4.998956e-02 1.784492e-01
2.025000e+09 5.288413e-02 1.848706e-01 9.329246e-01 -2.085186e-01 9.329245e-01 -2.085185e-01 5.291402e-02 1.847555e-01
2.100000e+09 5.590069e-02 1.911233e-01 9.296293e-01 -2.154135e-01 9.296291e-01 -2.154133e-01 5.593210e-02 1.910037e-01
2.175000e+09 5.900934e-02 1.973165e-01 9.262490e-01 -2.222342e-01 9.262489e-01 -2.222341e-01 5.904232e-02 1.971923e-01
2.250000e+09 6.220858e-02 2.034488e-01 9.227863e-01 -2.289803e-01 9.227862e-01 -2.289802e-01 6.224319e-02 2.033200e-01
2.325000e+09 6.549690e-02 2.095190e-01 9.192433e-01 -2.356515e-01 9.192432e-01 -2.356513e-01 6.553319e-02 2.093855e-01
2.400000e+09 6.887280e-02 2.155256e-01 9.156221e-01 -2.422472e-01 9.156220e-01 -2.422471e-01 6.891083e-02 2.153874e-01
2.475000e+09 7.233476e-02 2.214674e-01 9.119250e-01 -2.487674e-01 9.119249e-01 -2.487673e-01 7.237456e-02 2.213245e-01
2.550000e+09 7.588125e-02 2.273433e-01 9.081538e-01 -2.552118e-01 9.081537e-01 -2.552116e-01 7.592288e-02 2.271957e-01
2.625000e+09 7.951074e-02 2.331521e-01 9.043106e-01 -2.615802e-01 9.043105e-01 -2.615800e-01 7.955425e-02 2.329996e-01
2.700000e+09 8.322169e-02 2.388925e-01 9.003971e-01 -2.678725e-01 9.003970e-01 -2.678723e-01 8.326713e-02 2.387351e-01
2.775000e+09 8.701256e-02 2.445635e-01 8.964150e-01 -2.740886e-01 8.964149e-01 -2.740885e-01 8.705997e-02 2.444012e-01
2.850000e+09 9.088180e-02 2.501641e-01 8.923662e-01 -2.802285e-01 8.923661e-01 -2.802284e-01 9.093122e-02 2.499968e-01
2.925000e+09 9.482784e-02 2.556931e-01 8.882521e-01 -2.862921e-01 8.882520e-01 -2.862920e-01 9.487932e-02 2.555208e-01
3.000000e+09 9.884912e-02 2.611495e-01 8.840744e-01 -2.922794e-01 8.840743e-01 -2.922793e-01 9.890270e-02 2.609721e-01
3.075000e+09 1.029441e-01 2.665324e-01 8.798344e-01 -2.981903e-01 8.798344e-01 -2.981902e-01 1.029998e-01 2.663499e-01
3.150000e+09 1.071111e-01 2.718409e-01 8.755337e-01 -3.040248e-01 8.755336e-01 -3.040247e-01 1.071690e-01 2.716531e-01
3.225000e+09 1.113486e-01 2.770739e-01 8.711735e-01 -3.097829e-01 8.711735e-01 -3.097827e-01 1.114087e-01 2.768809e-01
3.300000e+09 1.156549e-01 2.822306e-01 8.667552e-01 -3.154644e-01 8.667552e-01 -3.154642e-01 1.157173e-01 2.820323e-01
3.375000e+09 1.200285e-01 2.873101e-01 8.622801e-01 -3.210693e-01 8.622800e-01 -3.210692e-01 1.200932e-01 2.871064e-01
3.450000e+09 1.244678e-01 2.923117e-01 8.577493e-01 -3.265975e-01 8.577493e-01 -3.265974e-01 1.245348e-01 2.921025e-01
3.525000e+09 1.289710e-01 2.972344e-01 8.531641e-01 -3.320489e-01 8.531641e-01 -3.320488e-01 1.290404e-01 2.970197e-01
3.600000e+09 1.335366e-01 3.020776e-01 8.485256e-01 -3.374234e-01 8.485256e-01 -3.374232e-01 1.336084e-01 3.018573e-01
3.675000e+09 1.381629e-01 3.068405e-01 8.438350e-01 -3.427207e-01 8.438350e-01 -3.427206e-01 1.382371e-01 3.066146e-01
3.750000e+09 1.428482e-01 3.115224e-01 8.390935e-01 -3.479408e-01 8.390935e-01 -3.479407e-01 1.429248e-01 3.112907e-01
3.825000e+09 1.475909e-01 3.161227e-01 8.343020e-01 -3.530835e-01 8.343020e-01 -3.530833e-01 1.476699e-01 3.158852e-01
3.900000e+09 1.523891e-01 3.206407e-01 8.294618e-01 -3.581484e-01 8.294618e-01 -3.581483e-01 1.524707e-01 3.203974e-01
3.975000e+09 1.572414e-01 3.250758e-01 8.245740e-01 -3.631355e-01 8.245740e-01 -3.631354e-01 1.573254e-01 3.248266e-01
4.050000e+09 1.621459e-01 3.294276e-01 8.196396e-01 -3.680444e-01 8.196396e-01 -3.680442e-01 1.622324e-01 3.291723e-01
4.125000e+09 1.671009e-01 3.336954e-01 8.146597e-01 -3.728748e-01 8.146597e-01 -3.728747e-01 1.671900e-01 3.334341e-01
4.200000e+09 1.721047e-01 3.378789e-01 8.096355e-01 -3.776266e-01 8.096355e-01 -3.776264e-01 1.721964e-01 3.376114e-01
4.275000e+09 1.771556e-01 3.419776e-01 8.045681e-01 -3.822993e-01 8.045681e-01 -3.822992e-01 1.772499e-01 3.417039e-01
4.350000e+09 1.822519e-01 3.459911e-01 7.994587e-01 -3.868927e-01 7.994587e-01 -3.868926e-01 1.823487e-01 3.457111e-01
4.425000e+09 1.873918e-01 3.499191e-01 7.943084e-01 -3.914066e-01 7.943084e-01 -3.914065e-01 1.874912e-01 3.496326e-01
4.500000e+09 1.925736e-01 3.537612e-01 7.891183e-01 -3.958405e-01 7.891183e-01 -3.958404e-01 1.926756e-01 3.534683e-01
4.575000e+09 1.977955e-01 3.575173e-01 7.838897e-01 -4.001943e-01 7.838897e-01 -4.001941e-01 1.979001e-01 3.572179e-01
4.650000e+09 2.030559e-01 3.611871e-01 7.786237e-01 -4.044675e-01 7.786237e-01 -4.044673e-01 2.031631e-01 3.608810e-01
4.725000e+09 2.083529e-01 3.647704e-01 7.733217e-01 -4.086599e-01 7.733217e-01 -4.086598e-01 2.084628e-01 3.644576e-01
4.800000e+09 2.136850e-01 3.682671e-01 7.679848e-01 -4.127712e-01 7.679848e-01 -4.127711e-01 2.137974e-01 3.679476e-01
4.875000e+09 2.190503e-01 3.716772e-01 7.626143e-01 -4.168012e-01 7.626143e-01 -4.168011e-01 2.191653e-01 3.713508e-01
4.950000e+09 2.244471e-01 3.750005e-01 7.572115e-01 -4.207496e-01 7.572116e-01 -4.207495e-01 2.245648e-01 3.746672e-01
5.025000e+09 2.298739e-01 3.782372e-01 7.517778e-01 -4.246161e-01 7.517778e-01 -4.246160e-01 2.299942e-01 3.778968e-01
5.100000e+09 2.353288e-01 3.813872e-01 7.463144e-01 -4.284006e-01 7.463145e-01 -4.284005e-01 2.354517e-01 3.810397e-01
5.175000e+09 2.408102e-01 3.844506e-01 7.408228e-01 -4.321029e-01 7.408228e-01 -4.321027e-01 2.409357e-01 3.840960e-01
5.250000e+09 2.463166e-01 3.874276e-01 7.353042e-01 -4.357227e-01 7.353042e-01 -4.357226e-01 2.464446e-01 3.870657e-01
5.325000e+09 2.518461e-01 3.903184e-01 7.297600e-01 -4.392600e-01 7.297600e-01 -4.392599e-01 2.519767e-01 3.899491e-01
5.400000e+09 2.573973e-01 3.931231e-01 7.241917e-01 -4.427146e-01 7.241917e-01 -4.427145e-01 2.575304e-01 3.927465e-01
5.475000e+09 2.629685e-01 3.958420e-01 7.186007e-01 -4.460865e-01 7.186007e-01 -4.460864e-01 2.631042e-01 3.954579e-01
5.550000e+09 2.685582e-01 3.984755e-01 7.129883e-01 -4.493757e-01 7.129883e-01 -4.493756e-01 2.686964e-01 3.980837e-01
5.625000e+09 2.741648e-01 4.010237e-01 7.073559e-01 -4.525821e-01 7.073560e-01 -4.525820e-01 2.743055e-01 4.006244e-01
5.700000e+09 2.797868e-01 4.034872e-01 7.017051e-01 -4.557058e-01 7.017052e-01 -4.557057e-01 2.799299e-01 4.030801e-01
5.775000e+09 2.854227e-01 4.058662e-01 6.960373e-01 -4.587468e-01 6.960373e-01 -4.587467e-01 2.855683e-01 4.054513e-01
5.850000e+09 2.910710e-01 4.081612e-01 6.903538e-01 -4.617053e-01 6.903538e-01 -4.617052e-01 2.912191e-01 4.077384e-01
5.925000e+09 2.967304e-01 4.103727e-01 6.846560e-01 -4.645813e-01 6.846561e-01 -4.645812e-01 2.968809e-01 4.099419e-01
6.000000e+09 3.023994e-01 4.125011e-01 6.789455e-01 -4.673752e-01 6.789456e-01 -4.673751e-01 3.025522e-01 4.120623e-01
6.075000e+09 3.080766e-01 4.145469e-01 6.732237e-01 -4.700870e-01 6.732237e-01 -4.700869e-01 3.082318e-01 4.141001e-01
6.150000e+09 3.137607e-01 4.165108e-01 6.674919e-01 -4.727171e-01 6.674919e-01 -4.727170e-01 3.139182e-01 4.160557e-01
6.225000e+09 3.194503e-01 4.183932e-01 6.617515e-01 -4.752658e-01 6.617515e-01 -4.752657e-01 3.196101e-01 4.179299e-01
6.300000e+09 3.251442e-01 4.201947e-01 6.560039e-01 -4.777333e-01 6.560040e-01 -4.777332e-01 3.253063e-01 4.197231e-01
6.375000e+09 3.308412e-01 4.219159e-01 6.502506e-01 -4.801201e-01 6.502506e-01 -4.801200e-01 3.310055e-01 4.214359e-01
6.450000e+09 3.365400e-01 4.235575e-01 6.444928e-01 -4.824266e-01 6.444928e-01 -4.824265e-01 3.367065e-01 4.230690e-01
6.525000e+09 3.422394e-01 4.251201e-01 6.387319e-01 -4.846532e-01 6.387319e-01 -4.846531e-01 3.424081e-01 4.246230e-01
6.600000e+09 3.479383e-01 4.266043e-01 6.329691e-01 -4.868003e-01 6.329692e-01 -4.868003e-01 3.481091e-01 4.260986e-01
6.675000e+09 3.536355e-01 4.280107e-01 6.272059e-01 -4.888686e-01 6.272059e-01 -4.888685e-01 3.538084e-01 4.274963e-01
6.750000e+09 3.593300e-01 4.293401e-01 6.214434e-01 -4.908585e-01 6.214434e-01 -4.908584e-01 3.595050e-01 4.288170e-01
6.825000e+09 3.650207e-01 4.305932e-01 6.156829e-01 -4.927706e-01 6.156829e-01 -4.927705e-01 3.651977e-01 4.300612e-01
6.900000e+09 3.707066e-01 4.317706e-01 6.099256e-01 -4.946054e-01 6.099256e-01 -4.946054e-01 3.708855e-01 4.312297e-01
6.975000e+09 3.763867e-01 4.328730e-01 6.041727e-01 -4.963637e-01 6.041727e-01 -4.963637e-01 3.765675e-01 4.323232e-01
7.050000e+09 3.820599e-01 4.339012e-01 5.984253e-01 -4.980461e-01 5.984254e-01 -4.980460e-01 3.822427e-01 4.333423e-01
7.125000e+09 3.877255e-01 4.348558e-01 5.926847e-01 -4.996531e-01 5.926847e-01 -4.996531e-01 3.879101e-01 4.342878e-01
7.200000e+09 3.933824e-01 4.357375e-01 5.869518e-01 -5.011856e-01 5.869518e-01 -5.011856e-01 3.935688e-01 4.351604e-01
7.275000e+09 3.990297e-01 4.365472e-01 5.812278e-01 -5.026442e-01 5.812278e-01 -5.026441e-01 3.992179e-01 4.359608e-01
7.350000e+09 4.046667e-01 4.372854e-01 5.755136e-01 -5.040296e-01 5.755137e-01 -5.040296e-01 4.048566e-01 4.366897e-01
7.425000e+09 4.102924e-01 4.379529e-01 5.698104e-01 -5.053426e-01 5.698104e-01 -5.053426e-01 4.104840e-01 4.373479e-01
7.500000e+09 4.159061e-01 4.385505e-01 5.641191e-01 -5.065840e-01 5.641191e-01 -5.065839e-01 4.160993e-01 4.379361e-01
7.575000e+09 4.215070e-01 4.390788e-01 5.584405e-01 -5.077544e-01 5.584405e-01 -5.077544e-01 4.217018e-01 4.384549e-01
7.650000e+09 4.270943e-01 4.395385e-01 5.527757e-01 -5.088548e-01 5.527757e-01 -5.088547e-01 4.272906e-01 4.389051e-01
7.725000e+09 4.326673e-01 4.399305e-01 5.471255e-01 -5.098858e-01 5.471255e-01 -5.098858e-01 4.328651e-01 4.392874e-01
7.800000e+09 4.382252e-01 4.402553e-01 5.414908e-01 -5.108483e-01 5.414908e-01 -5.108482e-01 4.384244e-01 4.396025e-01
7.875000e+09 4.437674e-01 4.405136e-01 5.358724e-01 -5.117430e-01 5.358724e-01 -5.117430e-01 4.439679e-01 4.398512e-01
7.950000e+09 4.492931e-01 4.407063e-01 5.302710e-01 -5.125708e-01 5.302710e-01 -5.125708e-01 4.494950e-01 4.400341e-01
8.025000e+09 4.548018e-01 4.408340e-01 5.246875e-01 -5.133325e-01 5.246875e-01 -5.133325e-01 4.550049e-01 4.401519e-01
8.100000e+09 4.602927e-01 4.408973e-01 5.191225e-01 -5.140289e-01 5.191225e-01 -5.140289e-01 4.604970e-01 4.402053e-01
8.175000e+09 4.657652e-01 4.408970e-01 5.135769e-01 -5.146608e-01 5.135768e-01 -5.146608e-01 4.659707e-01 4.401951e-01
8.250000e+09 4.712187e-01 4.408338e-01 5.080511e-01 -5.152290e-01 5.080511e-01 -5.152291e-01 4.714253e-01 4.401218e-01
8.325000e+09 4.766526e-01 4.407083e-01 5.025460e-01 -5.157344e-01 5.025460e-01 -5.157344e-01 4.768603e-01 4.399863e-01
8.400000e+09 4.820664e-01 4.405213e-01 4.970621e-01 -5.161777e-01 4.970621e-01 -5.161777e-01 4.822750e-01 4.397892e-01
8.475000e+09 4.874593e-01 4.402734e-01 4.916000e-01 -5.165597e-01 4.916000e-01 -5.165598e-01 4.876690e-01 4.395311e-01
8.550000e+09 4.928310e-01 4.399653e-01 4.861604e-01 -5.168813e-01 4.861603e-01 -5.168814e-01 4.930415e-01 4.392127e-01
8.625000e+09 4.981808e-01 4.395976e-01 4.807436e-01 -5.171433e-01 4.807436e-01 -5.171433e-01 4.983921e-01 4.388348e-01
8.700000e+09 5.035081e-01 4.391711e-01 4.753504e-01 -5.173463e-01 4.753504e-01 -5.173464e-01 5.037202e-01 4.383979e-01
8.775000e+09 5.088125e-01 4.386864e-01 4.699812e-01 -5.174914e-01 4.699811e-01 -5.174914e-01 5.090253e-01 4.379028e-01
8.850000e+09 5.140935e-01 4.381441e-01 4.646364e-01 -5.175791e-01 4.646363e-01 -5.175791e-01 5.143069e-01 4.373502e-01
8.925000e+09 5.193504e-01 4.375450e-01 4.593166e-01 -5.176103e-01 4.593165e-01 -5.176103e-01 5.195644e-01 4.367406e-01
9.000000e+09 5.245829e-01 4.368897e-01 4.540221e-01 -5.175857e-01 4.540221e-01 -5.175858e-01 5.247975e-01 4.360747e-01
9.075000e+09 5.297905e-01 4.361788e-01 4.487536e-01 -5.175062e-01 4.487535e-01 -5.175062e-01 5.300055e-01 4.353533e-01
9.150000e+09 5.349726e-01 4.354131e-01 4.435112e-01 -5.173724e-01 4.435111e-01 -5.173724e-01 5.351880e-01 4.345770e-01
9.225000e+09 5.401288e-01 4.345932e-01 4.382955e-01 -5.171851e-01 4.382954e-01 -5.171852e-01 5.403445e-01 4.337464e-01
9.300000e+09 5.452586e-01 4.337197e-01 4.331068e-01 -5.169451e-01 4.331067e-01 -5.169452e-01 5.454746e-01 4.328622e-01
9.375000e+09 5.503616e-01 4.327934e-01 4.279455e-01 -5.166531e-01 4.279454e-01 -5.166531e-01 5.505778e-01 4.319251e-01
9.450000e+09 5.554374e-01 4.318148e-01 4.228120e-01 -5.163098e-01 4.228119e-01 -5.163098e-01 5.556537e-01 4.309357e-01
9.525000e+09 5.604855e-01 4.307846e-01 4.177066e-01 -5.159159e-01 4.177064e-01 -5.159159e-01 5.607019e-01 4.298947e-01
9.600000e+09 5.655054e-01 4.297036e-01 4.126296e-01 -5.154721e-01 4.126294e-01 -5.154721e-01 5.657219e-01 4.288028e-01
9.675000e+09 5.704969e-01 4.285723e-01 4.075813e-01 -5.149791e-01 4.075812e-01 -5.149792e-01 5.707133e-01 4.276606e-01
9.750000e+09 5.754594e-01 4.273915e-01 4.025621e-01 -5.144377e-01 4.025620e-01 -5.144377e-01 5.756757e-01 4.264688e-01
9.825000e+09 5.803926e-01 4.261618e-01 3.975723e-01 -5.138485e-01 3.975721e-01 -5.138485e-01 5.806087e-01 4.252281e-01
9.900000e+09 5.852961e-01 4.248839e-01 3.926121e-01 -5.132122e-01 3.926119e-01 -5.132122e-01 5.855119e-01 4.239391e-01
9.975000e+09 5.901695e-01 4.235584e-01 3.876818e-01 -5.125294e-01 3.876816e-01 -5.125295e-01 5.903851e-01 4.226026e-01
1.005000e+10 5.950126e-01 4.221861e-01 3.827816e-01 -5.118009e-01 3.827814e-01 -5.118010e-01 5.952277e-01 4.212191e-01
1.012500e+10 5.998248e-01 4.207675e-01 3.779120e-01 -5.110273e-01 3.779117e-01 -5.110273e-01 6.000395e-01 4.197895e-01
1.020000e+10 6.046059e-01 4.193035e-01 3.730730e-01 -5.102093e-01 3.730728e-01 -5.102093e-01 6.048201e-01 4.183142e-01
1.027500e+10 6.093556e-01 4.177946e-01 3.682649e-01 -5.093474e-01 3.682647e-01 -5.093474e-01 6.095692e-01 4.167941e-01
1.035000e+10 6.140735e-01 4.162416e-01 3.634880e-01 -5.084424e-01 3.634878e-01 -5.084425e-01 6.142864e-01 4.152299e-01
1.042500e+10 6.187594e-01 4.146451e-01 3.587425e-01 -5.074950e-01 3.587423e-01 -5.074950e-01 6.189716e-01 4.136221e-01
1.050000e+10 6.234129e-01 4.130058e-01 3.540286e-01 -5.065056e-01 3.540284e-01 -5.065056e-01 6.236243e-01 4.119715e-01
1.057500e+10 6.280338e-01 4.113244e-01 3.493466e-01 -5.054750e-01 3.493463e-01 -5.054751e-01 6.282443e-01 4.102788e-01
1.065000e+10 6.326218e-01 4.096016e-01 3.446965e-01 -5.044039e-01 3.446963e-01 -5.044039e-01 6.328314e-01 4.085446e-01
1.072500e+10 6.371766e-01 4.078381e-01 3.400787e-01 -5.032927e-01 3.400784e-01 -5.032927e-01 6.373852e-01 4.067697e-01
1.080000e+10 6.416981e-01 4.060346e-01 3.354933e-01 -5.021422e-01 3.354930e-01 -5.021422e-01 6.419056e-01 4.049547e-01
1.087500e+10 6.461860e-01 4.041917e-01 3.309405e-01 -5.009530e-01 3.309402e-01 -5.009530e-01 6.463924e-01 4.031003e-01
1.095000e+10 6.506401e-01 4.023101e-01 3.264204e-01 -4.997257e-01 3.264201e-01 -4.997257e-01 6.508453e-01 4.012072e-01
1.102500e+10 6.550602e-01 4.003905e-01 3.219333e-01 -4.984608e-01 3.219330e-01 -4.984608e-01 6.552641e-01 3.992761e-01
1.110000e+10 6.594461e-01 3.984336e-01 3.174792e-01 -4.971590e-01 3.174789e-01 -4.971590e-01 6.596486e-01 3.973077e-01
1.117500e+10 6.637976e-01 3.964401e-01 3.130584e-01 -4.958210e-01 3.130581e-01 -4.958210e-01 6.639987e-01 3.953026e-01
1.125000e+10 6.681147e-01 3.944106e-01 3.086710e-01 -4.944473e-01 3.086707e-01 -4.944473e-01 6.683142e-01 3.932615e-01
1.132500e+10 6.723970e-01 3.923458e-01 3.043171e-01 -4.930385e-01 3.043168e-01 -4.930384e-01 6.725950e-01 3.911851e-01
1.140000e+10 6.766446e-01 3.902464e-01 2.999968e-01 -4.915952e-01 2.999965e-01 -4.915951e-01 6.768410e-01 3.890741e-01
1.147500e+10 6.808573e-01 3.881131e-01 2.957104e-01 -4.901179e-01 2.957100e-01 -4.901179e-01 6.810520e-01 3.869291e-01
1.155000e+10 6.850351e-01 3.859464e-01 2.914578e-01 -4.886074e-01 2.914574e-01 -4.886074e-01 6.852279e-01 3.847508e-01
1.162500e+10 6.891777e-01 3.837472e-01 2.872392e-01 -4.870642e-01 2.872388e-01 -4.870642e-01 6.893687e-01 3.825398e-01
1.170000e+10 6.932852e-01 3.815159e-01 2.830546e-01 -4.854889e-01 2.830543e-01 -4.854888e-01 6.934743e-01 3.802969e-01
1.177500e+10 6.973575e-01 3.792533e-01 2.789043e-01 -4.838819e-01 2.789040e-01 -4.838819e-01 6.975446e-01 3.780225e-01
1.185000e+10 7.013945e-01 3.769599e-01 2.747882e-01 -4.822441e-01 2.747879e-01 -4.822440e-01 7.015795e-01 3.757174e-01
1.192500e+10 7.053962e-01 3.746365e-01 2.707065e-01 -4.805758e-01 2.707061e-01 -4.805757e-01 7.055791e-01 3.733822e-01
1.200000e+10 7.093626e-01 3.722836e-01 2.666591e-01 -4.788777e-01 2.666588e-01 -4.788777e-01 7.095433e-01 3.710175e-01
1.207500e+10 7.132937e-01 3.699019e-01 2.626462e-01 -4.771504e-01 2.626459e-01 -4.771503e-01 7.134721e-01 3.686240e-01
1.215000e+10 7.171894e-01 3.674919e-01 2.586679e-01 -4.753944e-01 2.586675e-01 -4.753943e-01 7.173655e-01 3.662022e-01
1.222500e+10 7.210499e-01 3.650542e-01 2.547240e-01 -4.736103e-01 2.547237e-01 -4.736102e-01 7.212234e-01 3.637527e-01
1.230000e+10 7.248750e-01 3.625895e-01 2.508148e-01 -4.717986e-01 2.508144e-01 -4.717985e-01 7.250460e-01 3.612761e-01
1.237500e+10 7.286648e-01 3.600983e-01 2.469401e-01 -4.699598e-01 2.469398e-01 -4.699597e-01 7.288333e-01 3.587730e-01
1.245000e+10 7.324194e-01 3.575812e-01 2.431001e-01 -4.680947e-01 2.430997e-01 -4.680946e-01 7.325853e-01 3.562440e-01
