! Created with skrf 1.9.0 (http://scikit-rf.org).
# GHz S DB R 50.0 
!freq dBS11 angS11 dBS12 angS12 dBS13 angS13
! dBS14 angS14 dBS15 angS15 dBS16 angS16
! dBS21 angS21 dBS22 angS22 dBS23 angS23
! dBS24 angS24 dBS25 angS25 dBS26 angS26
! dBS31 angS31 dBS32 angS32 dBS33 angS33
! dBS34 angS34 dBS35 angS35 dBS36 angS36
! dBS41 angS41 dBS42 angS42 dBS43 angS43
! dBS44 angS44 dBS45 angS45 dBS46 angS46
! dBS51 angS51 dBS52 angS52 dBS53 angS53
! dBS54 angS54 dBS55 angS55 dBS56 angS56
! dBS61 angS61 dBS62 angS62 dBS63 angS63
! dBS64 angS64 dBS65 angS65 dBS66 angS66
!
0.0 -9.73675134308719 180.0 -3.5270517121877036 0.0 -55.37283894663556 180.0 -53.91631690544058 180.0
 -3.611954433304203 0.0 -48.47911446796391 0.0
 -3.5270517121877036 0.0 -9.736606980272953 180.0 -53.9164202946905 180.0 -55.36492524358877 180.0
 -3.611890118803584 0.0 -48.473726285524435 0.0
 -55.37283894462186 180.0 -53.916420291003824 180.0 -9.811129067981653 180.0 -3.551114309120602 0.0
 -48.476527360391856 0.0 -3.624407724761668 0.0
 -53.91631690650765 180.0 -55.36492524173417 180.0 -3.551114309120602 0.0 -9.810984754775106 180.0
 -48.473734973739695 0.0 -3.624379828934989 0.0
 -3.611954433304205 0.0 -3.611890118803581 0.0 -48.476527359314396 0.0 -48.47373497293961 0.0
 -9.90978215877599 180.0 -40.48209781615129 180.0
 -48.479114468388744 0.0 -48.47372628587465 0.0 -3.624407724761668 0.0 -3.624379828934986 0.0
 -40.482097815959065 180.0 -9.961870265318751 180.0
1.0 -9.75221665823234 178.82522723559248 -3.5329423184732107 -0.48433886835238565 -46.63571134435121 -133.77730696865873 -49.25287667720121 140.91042028084132
 -3.6154354974982117 -0.4812093352940858 -42.51397648104121 37.72756112209132
 -3.5329423184732107 -0.48433886835238565 -9.752049023988294 178.74066832501487 -49.248913774417275 140.8916218597108 -46.63625255037153 -133.82744776686116
 -3.6154720380535332 -0.5229333713883172 -42.51286961861143 37.675229673965156
 -46.635711344381214 -133.7773069738587 -49.24891377338764 140.89162185880963 -9.823827618852038 178.73869588803691 -3.5554482072221614 -0.49142240244805957
 -42.514167510661636 37.70511397627182 -3.6280077531835087 -0.5566199071402185
 -49.25287667797121 140.91042028614135 -46.63625254983128 -133.8274477626612 -3.555448207222163 -0.49142240244885976 -9.823873951083614 178.7389256409972
 -42.51308429776226 37.69204889769126 -3.6280076002679045 -0.5566320546210598
 -3.61543549749821 -0.48120933529388576 -3.6154720380535332 -0.5229333713881171 -42.51416751061183 37.70511397305163 -42.51308429748217 37.692048900450466
 -9.922460835961122 178.7400562086648 -37.6161564285162 -154.2243086102561
 -42.51397648101121 37.72756112335133 -42.51286961857143 37.67522967511517 -3.6280077531835087 -0.5566199071404183 -3.6280076002679 -0.5566320546197598
 -37.61615642851624 -154.22430861095614 -9.974184141914444 178.59735779298816
2.0 -9.768069046137343 177.76935971109532 -3.538799555132899 -0.9236484260222773 -42.730412830332895 -119.77855814533697 -46.45529219155289 121.28940105096305
 -3.6188781663408944 -0.9479455402779772 -39.196555274732894 55.63270236120304
 -3.5387995551329006 -0.9236484260222774 -9.767575009651303 177.6008271321543 -46.44785597586241 121.27164127807055 -42.73450721118867 -119.8971786713602
 -3.619087709527244 -1.030994057812603 -39.19752792470496 55.50700913092227
 -42.73041283061289 -119.77855814383697 -46.44785597598279 121.27164127447357 -9.836562829652074 177.59259248444585 -3.5597864321349784 -0.9424883497466997
 -39.19765605207172 55.59355599107089 -3.6316100073165702 -1.0963562866749077
 -46.455292191902906 121.289401049663 -42.7345072111885 -119.89717866965971 -3.5597864321349766 -0.9424883497466999 -9.836799920325177 177.59365401898197
 -39.197282392976646 55.53948456883569 -3.6316372635782566 -1.0960893396976106
 -3.61887816634089 -0.9479455402769771 -3.619087709527253 -1.030994057811603 -39.19765605225162 55.59355599191193 -39.197282392976575 55.53948456985554
 -9.935201154791297 177.5388703813394 -35.53209406993206 -137.87305906571726
 -39.196555274592896 55.63270236091302 -39.19752792457495 55.507009130592245 -3.631610007316572 -1.096356286674908 -3.6316372635782566 -1.0960893396976108
 -35.532094070022055 -137.8730590657168 -9.986522864306517 177.26334146306579
3.0 -9.779357060779637 176.7458071337402 -3.542807715574811 -1.3529500137591721 -39.940822851387814 -113.40808826143419 -43.89829638841781 111.53160964466583
 -3.6228073479828127 -1.4081287409381715 -36.490335622347814 64.04374083111583
 -3.5428077155758113 -1.3529500137591732 -9.778138838594693 176.49466465921654 -43.888408702460296 111.50816770429192 -39.954233536134296 -113.55843995366278
 -3.6231961321334127 -1.5318226023093662 -36.49862146076863 63.87260241103984
 -39.940822851467814 -113.40808826193417 -43.88840870227049 111.50816770409024 -9.84435140349144 176.467379741765 -3.562340162999314 -1.388707799668138
 -36.49267001668544 63.99169000309141 -3.6356160534180244 -1.6302455521008652
 -43.89829638845781 111.53160964406582 -39.95423353615425 -113.55843995336252 -3.5623401629993094 -1.3887077996671373 -9.844737219870815 176.47020903071402
 -36.4973676924105 63.91733541903 -3.6356057442316914 -1.629239911213156
 -3.6228073479828082 -1.4081287409381718 -3.6231961321334127 -1.5318226023093708 -36.4926700167455 63.99169000272186 -36.497367692420475 63.917335419190046
 -9.9489471715201 176.36425914848346 -33.487205495536195 -128.40459443995204
 -36.49033562203782 64.04374083189585 -36.49862146045864 63.872602411769854 -3.635616053418026 -1.6302455521008663 -3.6356057442316887 -1.6292399112121547
 -33.48720549572637 -128.40459444075054 -9.99884917290158 175.95260693827086
4.0 -9.788684767386185 175.73008096289732 -3.5461888985497554 -1.7815214877948629 -37.788846268900755 -109.99571646169785 -41.785345728980765 105.84493572710213
 -3.627278307070763 -1.8645284306708638 -34.348956160230756 68.54206316146214
 -3.5461888985497496 -1.7815214877948622 -9.786253314223991 175.39626212499198 -41.774520782264645 105.8127827507573 -37.80806061663225 -110.13822610636039
 -3.62781121731423 -2.0289611433181314 -34.361916021829806 68.35824086467657
 -37.788846269190756 -109.99571646239784 -41.77452078180544 105.8127827495517 -9.850195083865414 175.34568390388304 -3.564376062836292 -1.8359817494874735
 -34.35204167569753 68.4807152454458 -3.6402288039164827 -2.1608894247953514
 -41.78534572919076 105.84493572660212 -37.80806061656206 -110.13822610566095 -3.564376062835292 -1.8359817494864732 -9.850637252863944 175.35003138627732
 -34.36008050972768 68.4112302625455 -3.640093107609893 -2.159274847830738
 -3.62727830707076 -1.8645284306698624 -3.62781121731423 -2.028961143318132 -34.35204167588764 68.48071524503789 -34.360080509667654 68.41123026302517
 -9.96388539642307 175.20300769463384 -31.70049861221169 -122.76688783131438
 -34.34895616021076 68.54206316168214 -34.36191602179981 68.35824086487663 -3.6402288039164836 -2.160889424797354 -3.6400931076098946 -2.1592748478327377
 -31.700498612211735 -122.76688783151432 -10.011995914508741 174.65290012136094
5.0 -9.79744606134285 174.71976671266523 -3.54954749680848 -2.2100521205241 -36.050680521279475 -108.0542737669561 -40.03153053808948 102.08530627224388
 -3.632356898336479 -2.3175496082830986 -32.608698240659486 71.17227434220392
 -3.5495474968084775 -2.2100521205251002 -9.793412200842697 174.3026263993616 -40.02053650780524 102.04520680321203 -36.07137597857497 -108.18321307173292
 -3.633051325849474 -2.523120153218121 -32.622911998879175 70.98047617704303
 -36.050680521289486 -108.0542737675561 -40.02053650772502 102.0452068039097 -9.85526375235329 174.22726095938958 -3.566368976530088 -2.2842565019964667
 -32.612091140319194 71.10171183989277 -3.6455335620260705 -2.688402222614169
 -40.031530538279476 102.0853062732439 -36.071375978424975 -108.18321307193486 -3.566368976530088 -2.284256501996466 -9.855748464944284 174.23245059775218
 -32.62095544644717 71.04138310887382 -3.645225695348838 -2.686510205444333
 -3.6323568983364747 -2.3175496082830973 -3.633051325849474 -2.5231201532181213 -32.61209114031932 71.10171183946284 -32.620955446337206 71.04138310872337
 -9.98044350311931 174.05249273824631 -30.16779244658414 -119.29449866114697
 -32.60869824067949 71.17227434237388 -32.62291199889918 70.98047617722303 -3.645533562027073 -2.688402222616171 -3.6452256953498403 -2.686510205445331
 -30.167792446554188 -119.29449866134735 -10.026455822602562 173.3629712888856
6.0 -9.806094145271821 173.71572920961003 -3.553106006040978 -2.6381191047763632 -34.60059481174198 -106.92997741462636 -38.54592535252199 99.36188200637362
 -3.638021930200983 -2.767120459606365 -31.154405376341984 72.79391246113363
 -3.5531060060409763 -2.6381191047763632 -9.800156733072434 173.21463874563565 -38.53506889190495 99.31541039749467 -34.620109189902195 -107.05302188896486
 -3.6389395200068315 -3.014226049755397 -31.167802055527986 72.58788880597267
 -34.60059481172198 -106.92997741452636 -38.53506889196489 99.31541039746588 -9.85988931777067 173.11309562959391 -3.56848895236807 -2.7331838106445536
 -31.157873492096655 72.71312192383316 -3.6515066642690757 -3.212615397753168
 -38.54592535257198 99.36188200677364 -34.62010918984221 -107.05302188906563 -3.56848895236807 -2.733183810646554 -9.860463391632456 173.11844762784304
 -31.165991237443738 72.65761588527452 -3.6510112620192468 -3.210764631672949
 -3.6380219302009804 -2.7671204596073635 -3.6389395200068315 -3.014226049755398 -31.157873492086637 72.71312192390296 -31.165991237413753 72.65761588518436
 -9.998681550412131 172.91274405793283 -28.84666160321277 -117.11079821735976
 -31.15440537634198 72.79391246120363 -31.167802055527982 72.58788880603268 -3.6515066642690748 -3.2126153977521676 -3.6510112620192485 -3.210764631669949
 -28.846661603212794 -117.11079821745979 -10.042258673732729 172.08327187408744
7.0 -9.814708955213424 172.71878516351836 -3.556939395575389 -3.065316190172499 -33.360775460321385 -106.2958291975045 -37.26235786719139 97.25070947302552
 -3.644215221232394 -3.2132124789115006 -29.91056395082139 73.8205246345655
 -3.556939395575393 -3.065316190172498 -9.806624005978433 172.13334627831756 -37.251699187022346 97.19934202313303 -33.377844824912444 -106.42352651073621
 -3.6454447411155213 -3.5021406313785954 -29.92220503081741 73.59175969177348
 -33.360775460331396 -106.29582919740452 -37.2516991870125 97.19934202288312 -9.864141491734339 172.00373107154041 -3.570813097530834 -3.182536130675192
 -29.914023625096114 73.72836273941901 -3.6580893015104436 -3.7334780166074766
 -37.262357867261386 97.25070947294552 -33.37784482487237 -106.42352651063689 -3.570813097530838 -3.1825361306741913 -9.864887537819747 172.00869093689133
 -29.920660714591993 73.67141002529758 -3.6574093734082074 -3.731908929883342
 -3.644215221232394 -3.2132124789115006 -3.645444741115522 -3.5021406313785954 -29.914023625096085 73.72836273948907 -29.920660714561983 73.67141002538739
 -10.018471859419273 171.78391905695807 -27.6955700217259 -115.7341012442673
 -29.91056395082139 73.82052463450549 -29.9222050308174 73.5917596916735 -3.6580893015104436 -3.7334780166094763 -3.6574093734082065 -3.731908929885341
 -27.69557002172587 -115.73410124416728 -10.059259783005633 170.81399718109884
8.0 -9.823235888090512 171.72930510064646 -3.561063679115555 -3.491374406644619 -32.280143227107544 -105.97371093171262 -36.13471819185755 95.5278059053874
 -3.6508728691755548 -3.655908845969614 -28.826606319257554 74.4719730690474
 -3.5610636791155588 -3.4913744066446184 -9.812791315418188 171.0594124077512 -36.12418634154475 95.47262922676101 -32.2943965342983 -106.11568984475764
 -3.652516357844926 -3.986808843950929 -28.83627195877258 74.21276431690625
 -32.280143227097554 -105.97371093161262 -36.124186341574784 95.47262922666202 -9.868013138769093 170.89934071367384 -3.5733846553891606 -3.632154269528564
 -28.830064215899235 74.36747293706047 -3.6652201817789343 -4.251065947549945
 -36.13471819190756 95.52780590541741 -32.294396534268266 -106.11568984475831 -3.573384655390159 -3.6321542695295634 -9.869031764000058 170.903507631351
 -28.83502432313538 74.30329238422782 -3.664367681672143 -4.2499272564873145
 -3.650872869175561 -3.655908845969615 -3.65251635784492 -3.986808843951928 -28.83006421588921 74.36747293711032 -28.835024323125374 74.30329238422759
 -10.039629858879968 170.66584240485628 -26.680853514546733 -114.88612684756498
 -28.826606319247556 74.47197306893739 -28.836271958752565 74.21276431676637 -3.665220181778936 -4.2510659475479455 -3.664367681672143 -4.2499272564843125
 -26.680853514566692 -114.88612684746468 -10.077278245728571 169.55491468497158
9.0 -9.831580755335807 170.74729062834194 -3.5654703781423978 -3.9161447071549707 -31.323636219353396 -105.860104226085 -35.13044701988339 94.06511471592503
 -3.657938454669396 -4.095374726474971 -27.867533405623405 74.87415659241503
 -3.5654703781423978 -3.9161447071549698 -9.818577915958768 169.9931267613785 -35.1199087935716 94.00675697135365 -31.3352176988627 -106.0239385831372
 -3.6601012051721575 -4.46826449486426 -27.875414395812545 74.57852661466266
 -31.3236362193934 -105.86010422618496 -35.119908793521695 94.0067569713117 -9.871479282697454 169.79990193027274 -3.5762303867721768 -4.08190548465224
 -27.87104680545182 74.75661386637887 -3.6728471236794906 -4.765532725859615
 -35.13044701988339 94.06511471597503 -31.335217698862728 -106.02393858323727 -3.576230386772175 -4.08190548465324 -9.872876982157589 169.80301908862643
 -27.87444294494739 74.68063390629727 -3.671836515363265 -4.764888087370327
 -3.6579384546694005 -4.095374726473971 -3.6601012051721593 -4.46826449486426 -27.871046805471845 74.75661386634944 -27.874442944947397 74.68063390624728
 -10.061974537272977 169.5580331775903 -25.776472567620935 -114.39845505351474
 -27.8675334056434 74.87415659235504 -27.875414395832557 74.57852661462269 -3.6728471236794906 -4.765532725860618 -3.671836515363263 -4.764888087370327
 -25.776472567610917 -114.39845505351505 -10.09615000448563 168.30549879741213
10.0 -9.839648082061089 169.77250139040856 -3.5701414967551086 -4.339567940408041 -30.466303609975114 -105.89167724743008 -34.22596190675511 92.78478057483996
 -3.665367119123112 -4.531816843879038 -27.008344263225116 75.10341585264999
 -3.5701414967551086 -4.33956794040804 -9.82388940089362 168.93450044499085 -34.21526520308166 92.72345116871361 -30.475623255598173 -106.08276394318507
 -3.6681510943368623 -4.946606073495097 -27.014838231372504 74.76719757750885
 -30.466303610005117 -105.89167724753003 -34.21526520303176 92.72345116863177 -9.874515448939778 168.70530833791545 -3.579366624442736 -4.531669186222486
 -27.011994463680256 74.9723874891045 -3.6809297830755634 -5.277065022064701
 -34.225961906735115 92.78478057500996 -30.47562325559824 -106.08276394328499 -3.5793666244427373 -4.53166918622649 -9.876396681135603 168.70723743411614
 -27.014099024741025 74.88132778651712 -3.679773865243889 -5.276908083036621
 -3.6653671191231134 -4.5318168438790405 -3.6681510943368623 -4.946606073495097 -27.01199446370028 74.97238748907506 -27.01409902474104 74.88132778640723
 -10.085352161531622 168.4598182756738 -24.962452043710282 -114.16492346878293
 -27.008344263215115 75.10341585265995 -27.014838231372508 74.76719757751867 -3.680929783075566 -5.277065022065706 -3.6797738652438916 -5.276908083033623
 -24.962452043710314 -114.16492346888285 -10.115744327745748 167.06507701386388
11.0 -9.847355745268567 168.80455917712206 -3.5750566136544206 -4.761649044747066 -29.68985306605342 -106.02801281619406 -33.403726026663406 91.63705721073596
 -3.673125499424415 -4.9654519010880644 -26.230676535173416 75.20822750414595
 -3.575056613654422 -4.761649044748067 -9.828637419508421 167.88335825945407 -33.39272586614767 91.57263631991428 -29.697428879529223 -106.24983274031356
 -3.6766255972130764 -5.421970582163819 -26.236259186643625 74.82883484083939
 -29.689853066043423 -106.02801281619408 -33.3927258661576 91.5726363199747 -9.877102409146033 167.61543052957143 -3.582802171825195 -4.981335433443959
 -26.234551666479554 75.063492909742 -3.6894388128799833 -5.7858521126227505
 -33.40372602669342 91.63705721080596 -29.697428879509225 -106.24983274031416 -3.582802171825195 -4.981335433443957 -9.879564834682615 167.61612103179996
 -26.235702474186375 74.9552120688205 -3.6881462750219014 -5.786124198804152
 -3.673125499424418 -4.9654519010880644 -3.6766255972130764 -5.421970582163819 -26.234551666479557 75.06349290973188 -26.235702474176392 74.95521206882032
 -10.109642602432844 167.37043668061676 -24.223393691018625 -114.11621046099724
 -26.23067653518342 75.20822750415593 -26.236259186663634 74.82883484084921 -3.6894388128799847 -5.7858521126217495 -3.6881462750218983 -5.78612419880315
 -24.223393691008628 -114.11621046099754 -10.135965121757822 165.8329368693898
12.0 -9.85463921643451 167.84302189933123 -3.5801963397747443 -5.18243666219958 -28.980533363883755 -106.2423659717866 -32.65037920355375 90.58880911451344
 -3.6811900058707483 -5.396486235799575 -25.520714367003748 75.22059677015345
 -3.580196339774747 -5.18243666219958 -9.832747831729675 166.83941255786095 -32.63895132198759 90.5209498846762 -28.9868961673423 -106.49686544028317
 -3.6854924886024376 -5.894512196717328 -25.52586242677709 74.7966965296285
 -28.98053336389375 -106.2423659717866 -32.63895132195769 90.52094988461522 -9.879226430861529 166.5301458702059 -3.5865402520083123 -5.430807094273387
 -25.52489916928319 75.06210600749777 -3.6983537862182954 -6.292067851786248
 -32.65037920355376 90.58880911463343 -28.98689616734235 -106.49686544038326 -3.5865402520083105 -5.430807094273389 -9.882358502011533 166.52960494460052
 -25.5254430756722 74.93537844792093 -3.6969280530665003 -6.292675039096258
 -3.6811900058707496 -5.396486235799577 -3.6854924886024376 -5.894512196717328 -25.524899169293192 75.06210600747804 -25.525443075672204 74.93537844783094
 -10.134757781889078 166.28911552379927 -23.547311429109573 -114.2056250290821
 -25.520714366983754 75.22059677027342 -25.525862426757087 74.79669652973848 -3.6983537862182954 -6.292067851788253 -3.6969280530674937 -6.2926750390972535
 -23.547311429119656 -114.20562502918168 -10.156746376486698 164.60839357139545
13.0 -9.86145124106429 166.8874324660796 -3.585543918414465 -5.602007413950852 -28.327782321454464 -106.51645758317883 -31.955524400694458 89.61716283761116
 -3.6895446595144636 -5.825104693858853 -24.86784142923446 75.16238891150117
 -3.5855439184144666 -5.602007413950851 -9.836163129843337 165.80231833483575 -31.943570340235212 89.5453846009725 -28.33342252260444 -106.80443404546915
 -3.6947270662334692 -6.364386818045044 -24.872990502470703 74.69357163230089
 -28.32778232146446 -106.51645758327886 -31.94357034020518 89.54538460101104 -9.880878229449873 165.44935123048492 -3.5905800575979203 -5.8800018647009615
 -24.87241202015358 74.99021156475025 -3.707660924680494 -6.795861779022989
 -31.955524400694465 89.61716283768115 -28.333422522604494 -106.80443404556918 -3.5905800575979185 -5.8800018646979595 -9.884758433096346 165.44761750665296
 -24.872673242407032 74.84450250737028 -3.7060999003617843 -6.79668961421252
 -3.689544659514468 -5.825104693858849 -3.6947270662334692 -6.364386818045044 -24.872412020163615 74.99021156473056 -24.87267324240704 74.84450250732029
 -10.16063695604937 165.21511902361422 -22.924768325556375 -114.40083019880336
 -24.86784142922446 75.16238891152115 -24.872990502460716 74.69357163234092 -3.7076609246804977 -6.795861779020992 -3.706099900361783 -6.796689614213514
 -22.92476832556642 -114.40083019890302 -10.178045901372867 163.39082755941672
14.0 -9.867759681939752 165.93734907426864 -3.591085818264457 -6.020454020424871 -27.723333488670463 -106.83741797945186 -31.310919893790462 88.70582958820813
 -3.6981790478814593 -6.251465963248871 -24.263746877710453 75.04900988549811
 -3.591085818264456 -6.02045402042487 -9.83884200174932 164.77171229734046 -31.298366790762763 88.62959218209832 -27.728675286416305 -107.15885987135155
