#  GHZ S DB R 50
 1.20000000e+02 -7.088410326501e+00 +1.267236660751e+02 -7.092768472730e+00 -6.147814944072e+01 -4.278539342642e+00 -1.227158946669e+02 -9.054259304750e+00 -9.511147565500e+01 -7.092768472730e+00 -6.147814944072e+01 -7.093477788338e+00 +1.267748740434e+02 -9.047397490046e+00 -9.509336723912e+01 -4.278265668299e+00 -1.227182487285e+02 -4.278539342642e+00 -1.227158946669e+02 -9.047397490047e+00 -9.509336723912e+01 -7.093530953158e+00 +1.267992104348e+02 -7.091785259957e+00 -6.147916600486e+01 -9.054259304750e+00 -9.511147565500e+01 -4.278265668299e+00 -1.227182487285e+02 -7.091785259957e+00 -6.147916600487e+01 -7.090373391310e+00 +1.267457584464e+02
 1.21000000e+02 -7.201755139150e+00 +1.257085106313e+02 -7.042920914592e+00 -6.183785661186e+01 -4.235598571875e+00 -1.239296601089e+02 -9.127359720225e+00 -9.602794221672e+01 -7.042920914592e+00 -6.183785661186e+01 -7.207017656827e+00 +1.257601060842e+02 -9.120334303263e+00 -9.601016923365e+01 -4.235323311044e+00 -1.239321037925e+02 -4.235598571875e+00 -1.239296601089e+02 -9.120334303263e+00 -9.601016923365e+01 -7.207053165408e+00 +1.257850711551e+02 -7.041948876278e+00 -6.183903518234e+01 -9.127359720225e+00 -9.602794221672e+01 -4.235323311044e+00 -1.239321037925e+02 -7.041948876278e+00 -6.183903518234e+01 -7.203791478170e+00 +1.257310482224e+02
 1.22000000e+02 -7.320403358731e+00 +1.246786176745e+02 -6.990931220991e+00 -6.220899225198e+01 -4.192796420124e+00 -1.251522718366e+02 -9.203731947930e+00 -9.694801658444e+01 -6.990931220991e+00 -6.220899225198e+01 -7.325871503856e+00 +1.247305977258e+02 -9.196537805388e+00 -9.693060648624e+01 -4.192519858323e+00 -1.251548075105e+02 -4.192796420124e+00 -1.251522718366e+02 -9.196537805388e+00 -9.693060648624e+01 -7.325887971744e+00 +1.247562159128e+02 -6.989971545290e+00 -6.221032996818e+01 -9.203731947930e+00 -9.694801658443e+01 -4.192519858323e+00 -1.251548075105e+02 -6.989971545290e+00 -6.221032996818e+01 -7.322516949244e+00 +1.247016168498e+02
 1.23000000e+02 -7.444592515788e+00 +1.236337116011e+02 -6.936854365353e+00 -6.259245377923e+01 -4.150183368782e+00 -1.263837881538e+02 -9.283560604955e+00 -9.787120412070e+01 -6.936854365353e+00 -6.259245377923e+01 -7.450277620071e+00 +1.236860732393e+02 -9.276192334537e+00 -9.785418645716e+01 -4.149905809110e+00 -1.263864181977e+02 -4.150183368782e+00 -1.263837881538e+02 -9.276192334537e+00 -9.785418645716e+01 -7.450273572408e+00 +1.237123705184e+02 -6.935908213856e+00 -6.259394730230e+01 -9.283560604955e+00 -9.787120412070e+01 -4.149905809110e+00 -1.263864181977e+02 -6.935908213856e+00 -6.259394730230e+01 -7.446787626109e+00 +1.236571898401e+02
 1.24000000e+02 -7.574573730600e+00 +1.225735028188e+02 -6.880754835842e+00 -6.298913259673e+01 -4.107811145172e+00 -1.276242520797e+02 -9.367038196198e+00 -9.879693365030e+01 -6.880754835842e+00 -6.298913259673e+01 -7.580487955164e+00 +1.226262428813e+02 -9.359490099299e+00 -9.878034030075e+01 -4.107532909175e+00 -1.276269788799e+02 -4.107811145172e+00 -1.276242520797e+02 -9.359490099299e+00 -9.878034030075e+01 -7.580461820538e+00 +1.226532469018e+02 -6.879823337712e+00 -6.299077812173e+01 -9.367038196198e+00 -9.879693365030e+01 -4.107532909175e+00 -1.276269788799e+02 -6.879823337712e+00 -6.299077812173e+01 -7.576854948049e+00 +1.225974788117e+02
 1.25000000e+02 -7.710612733829e+00 +1.214976849796e+02 -6.822706747342e+00 -6.339990912732e+01 -4.065732606137e+00 -1.288736904255e+02 -9.454365224986e+00 -9.972454998270e+01 -6.822706747342e+00 -6.339990912732e+01 -7.716769146456e+00 +1.215508001188e+02 -9.446631288671e+00 -9.970841541703e+01 -4.065454034680e+00 -1.288765163704e+02 -4.065732606137e+00 -1.288736904255e+02 -9.446631288671e+00 -9.970841541703e+01 -7.716719250435e+00 +1.215785403536e+02 -6.821790993595e+00 -6.340170239921e+01 -9.454365224986e+00 -9.972454998270e+01 -4.065454034681e+00 -1.288765163704e+02 -6.821790993595e+00 -6.340170239921e+01 -7.712984996103e+00 +1.215221787324e+02
 1.26000000e+02 -7.852991005761e+00 +1.204059316252e+02 -6.762793885028e+00 -6.382564769382e+01 -4.024001605790e+00 -1.301321128998e+02 -9.545750273091e+00 -1.006533057394e+02 -6.762793885028e+00 -6.382564769382e+01 -7.859403667200e+00 +1.204594182648e+02 -9.537824151482e+00 -1.006376673123e+02 -4.023723059922e+00 -1.301350403743e+02 -4.024001605791e+00 -1.301321128998e+02 -9.537824151482e+00 -1.006376673123e+02 -7.859328225561e+00 +1.204879261788e+02 -6.761894923035e+00 -6.382758402708e+01 -9.545750273091e+00 -1.006533057394e+02 -4.023723059922e+00 -1.301350403743e+02 -6.761894923036e+00 -6.382758402708e+01 -7.855459636231e+00 +1.204309645751e+02
 1.27000000e+02 -8.002007053198e+00 +1.192978921359e+02 -6.701109676027e+00 -6.426719129201e+01 -3.982672847076e+00 -1.313995112544e+02 -9.641410043434e+00 -1.015823524117e+02 -6.701109676027e+00 -6.426719129201e+01 -8.008691113859e+00 +1.193517464150e+02 -9.633285038643e+00 -1.015672506946e+02 -3.982394708874e+00 -1.314025426333e+02 -3.982672847076e+00 -1.313995112544e+02 -9.633285038644e+00 -1.015672506946e+02 -8.008588225524e+00 +1.193810556551e+02 -6.700228504303e+00 -6.426926559388e+01 -9.641410043435e+00 -1.015823524117e+02 -3.982394708874e+00 -1.314025426333e+02 -6.700228504303e+00 -6.426926559388e+01 -8.004577800728e+00 +1.193234872784e+02
 1.28000000e+02 -8.157977846482e+00 +1.181731868543e+02 -6.637757086490e+00 -6.472535630729e+01 -3.941801717001e+00 -1.326758584815e+02 -9.741569357349e+00 -1.025107305629e+02 -6.637757086490e+00 -6.472535630729e+01 -8.164949655069e+00 +1.182274045563e+02 -9.733238400164e+00 -1.024962097193e+02 -3.941524390401e+00 -1.326789961231e+02 -3.941801717001e+00 -1.326758584815e+02 -9.733238400164e+00 -1.024962097193e+02 -8.164817294773e+00 +1.182575511660e+02 -6.636894649825e+00 -6.472756310429e+01 -9.741569357349e+00 -1.025107305629e+02 -3.941524390401e+00 -1.326789961231e+02 -6.636894649825e+00 -6.472756310429e+01 -8.160656930503e+00 +1.181993688831e+02
 1.29000000e+02 -8.321240443214e+00 +1.170314012308e+02 -6.572848442383e+00 -6.520092722825e+01 -3.901444105602e+00 -1.339611080786e+02 -9.846461096552e+00 -1.034373590793e+02 -6.572848442383e+00 -6.520092722825e+01 -8.328517669145e+00 +1.170859776924e+02 -9.837916727136e+00 -1.034234672886e+02 -3.901168017190e+00 -1.339643543170e+02 -3.901444105602e+00 -1.339611080786e+02 -9.837916727136e+00 -1.034234672886e+02 -8.328353679884e+00 +1.171170003552e+02 -6.572005627368e+00 -6.520326069575e+01 -9.846461096552e+00 -1.034373590793e+02 -3.901168017190e+00 -1.339643543170e+02 -6.572005627368e+00 -6.520326069575e+01 -8.324034604927e+00 +1.170581966922e+02
 1.30000000e+02 -8.492153830091e+00 +1.158720788070e+02 -6.506505173257e+00 -6.569465141222e+01 -3.861656208979e+00 -1.352551933934e+02 -9.956326077737e+00 -1.043610233569e+02 -6.506505173257e+00 -6.569465141222e+01 -8.499755601871e+00 +1.159270088032e+02 -9.947560426718e+00 -1.043478132954e+02 -3.861381808746e+00 -1.352585505298e+02 -3.861656208979e+00 -1.352551933934e+02 -9.947560426718e+00 -1.043478132954e+02 -8.499557687181e+00 +1.159589491199e+02 -6.505682804276e+00 -6.569710540680e+01 -9.956326077737e+00 -1.043610233569e+02 -3.861381808746e+00 -1.352585505298e+02 -6.505682804276e+00 -6.569710540680e+01 -8.495070390812e+00 +1.158995162699e+02
 1.31000000e+02 -8.671101020051e+00 +1.146947128166e+02 -6.438857479360e+00 -6.620723395889e+01 -3.822494316985e+00 -1.365580270637e+02 -1.007141284493e+01 -1.052803622998e+02 -6.438857479360e+00 -6.620723395889e+01 -8.679048082205e+00 +1.147499904139e+02 -1.006241761537e+01 -1.052678916848e+02 -3.822222079021e+00 -1.365614973576e+02 -3.822494316985e+00 -1.365580270637e+02 -1.006241761537e+01 -1.052678916848e+02 -8.678813798372e+00 +1.147828932198e+02 -6.438056315062e+00 -6.620980205296e+01 -1.007141284493e+01 -1.052803622998e+02 -3.822222079021e+00 -1.365614973576e+02 -6.438056315062e+00 -6.620980205296e+01 -8.674147947965e+00 +1.147228230596e+02
 1.32000000e+02 -8.858491448878e+00 +1.134987361366e+02 -6.370043923447e+00 -6.673933274752e+01 -3.784014586495e+00 -1.378695005679e+02 -1.019197736120e+01 -1.061938539840e+02 -6.370043923447e+00 -6.673933274752e+01 -8.866806340536e+00 +1.135543545074e+02 -1.018274381213e+01 -1.061821861918e+02 -3.783745009628e+00 -1.378730862271e+02 -3.784014586495e+00 -1.378695005679e+02 -1.018274381213e+01 -1.061821861918e+02 -8.866533088858e+00 +1.135882682356e+02 -6.369264653754e+00 -6.674200826602e+01 -1.019197736120e+01 -1.061938539840e+02 -3.783745009628e+00 -1.378730862271e+02 -6.369264653754e+00 -6.674200826602e+01 -8.861677435701e+00 +1.135275523545e+02
 1.33000000e+02 -9.054763723689e+00 +1.122835092629e+02 -6.300210949735e+00 -6.729155369271e+01 -3.746272801492e+00 -1.391894839014e+02 -1.031828257701e+01 -1.070997998231e+02 -6.300210949735e+00 -6.729155369271e+01 -9.063470982549e+00 +1.123394604502e+02 -1.030880150930e+01 -1.070890045907e+02 -3.746006409836e+00 -1.391931870713e+02 -3.746272801492e+00 -1.391894839014e+02 -1.030880150930e+01 -1.070890045907e+02 -9.063156001837e+00 +1.123744375512e+02 -6.299454193403e+00 -6.729432975130e+01 -1.031828257701e+01 -1.070997998231e+02 -3.746006409836e+00 -1.391931870713e+02 -6.299454193403e+00 -6.729432975130e+01 -9.058098273067e+00 +1.123130672945e+02
 1.34000000e+02 -9.260388785745e+00 +1.110483059136e+02 -6.229512333449e+00 -6.786444627116e+01 -3.709324121568e+00 -1.405178253921e+02 -1.045059784649e+01 -1.079963070506e+02 -6.229512333449e+00 -6.786444627116e+01 -9.269515181889e+00 +1.111045805321e+02 -1.044085959236e+01 -1.079864612732e+02 -3.709061464985e+00 -1.405216481444e+02 -3.709324121568e+00 -1.405178253921e+02 -1.044085959236e+01 -1.079864612732e+02 -9.269155541446e+00 +1.111406779584e+02 -6.228778636212e+00 -6.786731581557e+01 -1.045059784649e+01 -1.079963070506e+02 -3.709061464985e+00 -1.405216481444e+02 -6.228778636212e+00 -6.786731581557e+01 -9.263882315620e+00 +1.110786444917e+02
 1.35000000e+02 -9.475873562039e+00 +1.097922957678e+02 -6.158108565401e+00 -6.845849936923e+01 -3.673222820793e+00 -1.418543516709e+02 -1.058919815643e+01 -1.088812693076e+02 -6.158108565401e+00 -6.845849936923e+01 -9.485448367044e+00 +1.098488826252e+02 -1.057919257382e+01 -1.088724579462e+02 -3.672964475248e+00 -1.418582959914e+02 -3.673222820793e+00 -1.418543516709e+02 -1.057919257382e+01 -1.088724579462e+02 -9.485040960476e+00 +1.098861623949e+02 -6.157398398688e+00 -6.846145521529e+01 -1.058919815643e+01 -1.088812693076e+02 -3.672964475248e+00 -1.418582959914e+02 -6.157398398688e+00 -6.846145521529e+01 -9.479537523718e+00 +1.098234567951e+02
 1.36000000e+02 -9.701765194724e+00 +1.085145237293e+02 -6.086166176918e+00 -6.907413749732e+01 -3.638022019303e+00 -1.431988678096e+02 -1.073436312292e+01 -1.097523451027e+02 -6.086166176918e+00 -6.907413749732e+01 -9.711820492652e+00 +1.085714093446e+02 -1.072407959691e+01 -1.097446622158e+02 -3.637768587094e+00 -1.432029355851e+02 -3.638022019303e+00 -1.431988678096e+02 -1.072407959691e+01 -1.097446622158e+02 -9.711362032992e+00 +1.086099391989e+02 -6.085479937163e+00 -6.907717237122e+01 -1.073436312292e+01 -1.097523451027e+02 -3.637768587094e+00 -1.432029355851e+02 -6.085479937163e+00 -6.907717237122e+01 -9.705612212037e+00 +1.085465525805e+02
 1.37000000e+02 -9.938655955112e+00 +1.072138849513e+02 -6.013857011288e+00 -6.971171741221e+01 -3.603773410290e+00 -1.445511576368e+02 -1.088637570005e+01 -1.106069338822e+02 -6.013857011288e+00 -6.971171741221e+01 -9.949227003455e+00 +1.072710529415e+02 -1.087580315351e+01 -1.106004838016e+02 -3.603525520142e+00 -1.445553506419e+02 -3.603773410290e+00 -1.445511576368e+02 -1.087580315351e+01 -1.106004838016e+02 -9.948714020252e+00 +1.073109071158e+02 -6.013195019813e+00 -6.971482399062e+01 -1.088637570005e+01 -1.106069338822e+02 -3.603525520142e+00 -1.445553506419e+02 -6.013195019813e+00 -6.971482399062e+01 -9.942699987827e+00 +1.072468308038e+02
 1.38000000e+02 -1.018718897050e+01 +1.058890946574e+02 -5.941357448598e+00 -7.037152518384e+01 -3.570526985454e+00 -1.459109842437e+02 -1.104552052991e+01 -1.114421494288e+02 -5.941357448598e+00 -7.037152518384e+01 -1.019831462097e+01 +1.059465249543e+02 -1.103464744680e+01 -1.114370480967e+02 -3.570285292452e+00 -1.459153041261e+02 -3.570526985454e+00 -1.459109842437e+02 -1.103464744680e+01 -1.114370480967e+02 -1.019774346027e+01 +1.059877850865e+02 -5.940719952055e+00 -7.037469613343e+01 -1.104552052991e+01 -1.114421494288e+02 -3.570285292452e+00 -1.459153041261e+02 -5.940719952055e+00 -7.037469613343e+01 -1.019144550724e+01 +1.059230108516e+02
 1.39000000e+02 -1.044806491835e+01 +1.045386515288e+02 -5.868847591444e+00 -7.105377373665e+01 -3.538330762296e+00 -1.472780906848e+02 -1.121208184555e+01 -1.122547902830e+02 -5.868847591444e+00 -7.105377373665e+01 -1.045978810975e+01 +1.045963193771e+02 -1.120089631078e+01 -1.122511667739e+02 -3.538095947661e+00 -1.472825389512e+02 -3.538330762296e+00 -1.472780906848e+02 -1.120089631078e+01 -1.122511667739e+02 -1.045915493823e+01 +1.046390755825e+02 -5.868234762801e+00 -7.105700175260e+01 -1.121208184555e+01 -1.122547902830e+02 -3.538095947661e+00 -1.472825389512e+02 -5.868234762801e+00 -7.105700175260e+01 -1.045255120554e+01 +1.045735959581e+02
 1.40000000e+02 -1.072204987445e+01 +1.031607930840e+02 -5.796510419500e+00 -7.175860088965e+01 -3.507230516928e+00 -1.486522008802e+02 -1.138634081540e+01 -1.130413068740e+02 -5.796510419500e+00 -7.175860088965e+01 -1.073441821271e+01 +1.032186677526e+02 -1.137483057658e+01 -1.130393051242e+02 -3.507003287593e+00 -1.486567788804e+02 -3.507230516928e+00 -1.486522008802e+02 -1.137483057658e+01 -1.130393051242e+02 -1.073371902775e+01 +1.032630199033e+02 -5.795922359527e+00 -7.176187873293e+01 -1.138634081540e+01 -1.130413068740e+02 -3.507003287594e+00 -1.486567788804e+02 -5.795922359527e+00 -7.176187873293e+01 -1.072678518962e+01 +1.031968286125e+02
 1.41000000e+02 -1.100998454094e+01 +1.017534410057e+02 -5.724530921259e+00 -7.248606791272e+01 -3.477269526296e+00 -1.500330207194e+02 -1.156857218922e+01 -1.137977650467e+02 -5.724530921259e+00 -7.248606791272e+01 -1.102305098518e+01 +1.018114841254e+02 -1.155672474705e+01 -1.137975458171e+02 -3.477050614292e+00 -1.500377296311e+02 -3.477269526296e+00 -1.500330207194e+02 -1.155672474705e+01 -1.137975458171e+02 -1.102228163338e+01 +1.018575433808e+02 -5.723967660495e+00 -7.248938844568e+01 -1.156857218922e+01 -1.137977650467e+02 -3.477050614292e+00 -1.500377296311e+02 -5.723967660495e+00 -7.248938844568e+01 -1.101499052083e+01 +1.017906359098e+02
 1.42000000e+02 -1.131279512795e+01 +1.003141337493e+02 -5.653095211517e+00 -7.323615860981e+01 -3.448488323900e+00 -1.514202393652e+02 -1.175904007000e+01 -1.145198056999e+02 -5.653095211517e+00 -7.323615860981e+01 -1.132661880629e+01 +1.003722971569e+02 -1.174684280587e+01 -1.145215487976e+02 -3.448278485523e+00 -1.514250801779e+02 -3.448488323900e+00 -1.514202393652e+02 -1.174684280587e+01 -1.145215487976e+02 -1.132577501385e+01 +1.004201878041e+02 -5.652556712663e+00 -7.323951482988e+01 -1.175904007000e+01 -1.145198056999e+02 -3.448278485523e+00 -1.514250801779e+02 -5.652556712663e+00 -7.323951482988e+01 -1.131809616503e+01 +1.003525621746e+02
 1.43000000e+02 -1.163150622133e+01 +9.883994291165e+01 -5.582389643209e+00 -7.400877893261e+01 -3.420924473190e+00 -1.528135307517e+02 -1.195799259212e+01 -1.152026003139e+02 -5.582389643209e+00 -7.400877893261e+01 -1.164615340592e+01 +9.889816583822e+01 -1.194543294388e+01 -1.152065070978e+02 -3.420724487939e+00 -1.528185042508e+02 -3.420924473190e+00 -1.528135307517e+02 -1.194543294388e+01 -1.152065070978e+02 -1.164523082600e+01 +9.894802751910e+01 -5.581875803914e+00 -7.401216400389e+01 -1.195799259212e+01 -1.152026003139e+02 -3.420724487939e+00 -1.528185042508e+02 -5.581875803914e+00 -7.401216400389e+01 -1.163712994605e+01 +9.887968532867e+01
 1.44000000e+02 -1.196725603924e+01 +9.732736867179e+01 -5.512599922192e+00 -7.480375712162e+01 -3.394612362799e+00 -1.542125552660e+02 -1.216565523158e+01 -1.158408022672e+02 -5.512599922192e+00 -7.480375712162e+01 -1.198280131821e+01 +9.738557405282e+01 -1.215272093142e+01 -1.158470984602e+02 -3.394423032078e+00 -1.542176620166e+02 -3.394612362799e+00 -1.542125552660e+02 -1.215272093142e+01 -1.158470984602e+02 -1.198179560221e+01 +9.743756447474e+01 -5.512110578188e+00 -7.480716440411e+01 -1.216565523158e+01 -1.158408022672e+02 -3.394423032078e+00 -1.542176620166e+02 -5.512110578187e+00 -7.480716440411e+01 -1.197323391065e+01 +9.736851230471e+01
 1.45000000e+02 -1.232131456504e+01 +9.577220799561e+01 -5.443910233358e+00 -7.562084436455e+01 -3.369583027706e+00 -1.556169615993e+02 -1.238222240835e+01 -1.164284940461e+02 -5.443910233359e+00 -7.562084436455e+01 -1.233784225890e+01 +9.583029759449e+01 -1.236890180049e+01 -1.164374328676e+02 -3.369405173277e+00 -1.556222019304e+02 -3.369583027706e+00 -1.556169615993e+02 -1.236890180050e+01 -1.164374328676e+02 -1.233674916203e+01 +9.588459585061e+01 -5.443445161885e+00 -7.562426744093e+01 -1.238222240835e+01 -1.164284940461e+02 -3.369405173277e+00 -1.556222019304e+02 -5.443445161885e+00 -7.562426744093e+01 -1.232768259954e+01 +9.581484718020e+01
 1.46000000e+02 -1.269510514246e+01 +9.416938702773e+01 -5.376502386123e+00 -7.645971595543e+01 -3.345864000199e+00 -1.570263887481e+02 -1.260784696181e+01 -1.169591307805e+02 -5.376502386123e+00 -7.645971595543e+01 -1.271271102547e+01 +9.422723494008e+01 -1.259412942202e+01 -1.169709964035e+02 -3.345698462381e+00 -1.570317627372e+02 -3.345864000199e+00 -1.570263887481e+02 -1.259412942202e+01 -1.169709964035e+02 -1.271152656143e+01 +9.428404560329e+01 -5.376061309611e+00 -7.646314865530e+01 -1.260784696181e+01 -1.169591307805e+02 -3.345698462381e+00 -1.570317627372e+02 -5.376061309611e+00 -7.646314865530e+01 -1.270190481978e+01 +9.421362342667e+01
 1.47000000e+02 -1.309023022907e+01 +9.251274587994e+01 -5.310554986905e+00 -7.731997293200e+01 -3.323479194204e+00 -1.584404681439e+02 -1.284262698753e+01 -1.174254810478e+02 -5.310554986905e+00 -7.731997293200e+01 -1.310902363289e+01 +9.257018980555e+01 -1.282850347214e+01 -1.174405923599e+02 -3.323326829813e+00 -1.584459756018e+02 -3.323479194204e+00 -1.584404681439e+02 -1.282850347214e+01 -1.174405923599e+02 -1.310774429966e+01 +9.262974801072e+01 -5.310137576861e+00 -7.732340935343e+01 -1.284262698753e+01 -1.174254810478e+02 -3.323326829813e+00 -1.584459756018e+02 -5.310137576861e+00 -7.732340935343e+01 -1.309750962772e+01 +9.255868844117e+01
 1.48000000e+02 -1.350850211769e+01 +9.079475942198e+01 -5.246242645646e+00 -7.820114416276e+01 -3.302448826093e+00 -1.598588258821e+02 -1.308658941905e+01 -1.178195666445e+02 -5.246242645646e+00 -7.820114416276e+01 -1.352860851580e+01 +9.085158882417e+01 -1.307205317744e+01 -1.178382812608e+02 -3.302310506123e+00 -1.598644663390e+02 -3.302448826093e+00 -1.598588258821e+02 -1.307205317744e+01 -1.178382812608e+02 -1.352723162506e+01 +9.091416662135e+01 -5.245848526694e+00 -7.820457869124e+01 -1.308658941905e+01 -1.178195666445e+02 -3.302310506123e+00 -1.598644663390e+02 -5.245848526694e+00 -7.820457869124e+01 -1.351631735023e+01 +9.084252389575e+01
 1.49000000e+02 -1.395197953136e+01 +8.900617100494e+01 -5.183735222713e+00 -7.910268885059e+01 -3.282789374571e+00 -1.612810850216e+02 -1.333966962524e+01 -1.181326041383e+02 -5.183735222713e+00 -7.910268885059e+01 -1.397354372925e+01 +8.906211087695e+01 -1.332471711708e+01 -1.181553225611e+02 -3.282665981620e+00 -1.612868577132e+02 -3.282789374571e+00 -1.612810850216e+02 -1.332471711708e+01 -1.181553225611e+02 -1.397206788849e+01 +8.912802522942e+01 -5.183363976754e+00 -7.910611617528e+01 -1.333966962524e+01 -1.181326041383e+02 -3.282665981620e+00 -1.612868577132e+02 -5.183363976754e+00 -7.910611617528e+01 -1.396039657426e+01 +8.905587872278e+01
