#  GHZ S DB R 50
 1.20000000e+02 -6.615563632177e-01 +1.696804363043e+02 -4.752407922160e+01 -1.118790649477e+02 -4.752407922170e+01 -1.118790649473e+02 -6.616831905546e-01 +1.696260915808e+02
 1.21000000e+02 -6.756760985216e-01 +1.683411956985e+02 -4.706948554633e+01 -1.138493154201e+02 -4.706948554626e+01 -1.138493154209e+02 -6.758614741575e-01 +1.682846103869e+02
 1.22000000e+02 -6.905775925893e-01 +1.669856397173e+02 -4.657775096604e+01 -1.158802127142e+02 -4.657775096606e+01 -1.158802127145e+02 -6.908261270778e-01 +1.669266699471e+02
 1.23000000e+02 -7.063544349410e-01 +1.656121119618e+02 -4.604676453086e+01 -1.179760652970e+02 -4.604676453102e+01 -1.179760652969e+02 -7.066711781621e-01 +1.655506044872e+02
 1.24000000e+02 -7.231160565249e-01 +1.642187784023e+02 -4.547436107828e+01 -1.201416385346e+02 -4.547436107824e+01 -1.201416385339e+02 -7.235065555453e-01 +1.641545697663e+02
 1.25000000e+02 -7.409913573879e-01 +1.628035985880e+02 -4.485831592580e+01 -1.223822834694e+02 -4.485831592581e+01 -1.223822834690e+02 -7.414617254005e-01 +1.627365141730e+02
 1.26000000e+02 -7.601333879424e-01 +1.613642909567e+02 -4.419633526677e+01 -1.247041024536e+02 -4.419633526670e+01 -1.247041024531e+02 -7.606903871704e-01 +1.612941439036e+02
 1.27000000e+02 -7.807254564227e-01 +1.598982908222e+02 -4.348604125605e+01 -1.271141604896e+02 -4.348604125605e+01 -1.271141604894e+02 -7.813765986033e-01 +1.598248807957e+02
 1.28000000e+02 -8.029891911479e-01 +1.584026992597e+02 -4.272495074352e+01 -1.296207539016e+02 -4.272495074344e+01 -1.296207539028e+02 -8.037428605317e-01 +1.583258110304e+02
 1.29000000e+02 -8.271953179711e-01 +1.568742206728e+02 -4.191044662558e+01 -1.322337520003e+02 -4.191044662550e+01 -1.322337519997e+02 -8.280609235410e-01 +1.567936224831e+02
 1.30000000e+02 -8.536782626868e-01 +1.553090863489e+02 -4.103974086186e+01 -1.349650334021e+02 -4.103974086184e+01 -1.349650334016e+02 -8.546664287749e-01 +1.552245280202e+02
 1.31000000e+02 -8.828562229670e-01 +1.537029608396e+02 -4.010982838822e+01 -1.378290476483e+02 -4.010982838825e+01 -1.378290476479e+02 -8.839790311041e-01 +1.536141715703e+02
 1.32000000e+02 -9.152591858681e-01 +1.520508277426e+02 -3.911743154860e+01 -1.408435460726e+02 -3.911743154860e+01 -1.408435460730e+02 -9.165304862481e-01 +1.519575135352e+02
 1.33000000e+02 -9.515686800261e-01 +1.503468518486e+02 -3.805893546206e+01 -1.440305458234e+02 -3.805893546208e+01 -1.440305458232e+02 -9.530044991516e-01 +1.502486924937e+02
 1.34000000e+02 -9.926751567537e-01 +1.485842166969e+02 -3.693031634892e+01 -1.474176208058e+02 -3.693031634888e+01 -1.474176208060e+02 -9.942942406099e-01 +1.484808622326e+02
 1.35000000e+02 -1.039762314880e+00 +1.467549427131e+02 -3.572706806929e+01 -1.510396582052e+02 -3.572706806930e+01 -1.510396582055e+02 -1.041586867177e+00 +1.466460092783e+02
 1.36000000e+02 -1.094433297970e+00 +1.448497066476e+02 -3.444413863462e+01 -1.549412866402e+02 -3.444413863463e+01 -1.549412866401e+02 -1.096490005208e+00 +1.447347716717e+02
 1.37000000e+02 -1.158902930427e+00 +1.428577202460e+02 -3.307590155877e+01 -1.591802819638e+02 -3.307590155875e+01 -1.591802819638e+02 -1.161224418610e+00 +1.427363170097e+02
 1.38000000e+02 -1.236295171165e+00 +1.407668132401e+02 -3.161621342222e+01 -1.638324001808e+02 -3.161621342219e+01 -1.638324001810e+02 -1.238922126468e+00 +1.406384250841e+02
 1.39000000e+02 -1.331108231221e+00 +1.385640686996e+02 -3.005866276323e+01 -1.689982751466e+02 -3.005866276324e+01 -1.689982751465e+02 -1.334092562701e+00 +1.384281237945e+02
 1.40000000e+02 -1.449940974010e+00 +1.362378310539e+02 -2.839722421821e+01 -1.748132055833e+02 -2.839722421823e+01 -1.748132055833e+02 -1.453350632463e+00 +1.360937002091e+02
 1.41000000e+02 -1.602595645462e+00 +1.337829984998e+02 -2.662774884209e+01 +1.785393750501e+02 -2.662774884208e+01 +1.785393750501e+02 -1.606522060181e+00 +1.336300023720e+02
 1.42000000e+02 -1.803592526289e+00 +1.312139522053e+02 -2.475113363308e+01 +1.708109543962e+02 -2.475113363309e+01 +1.708109543963e+02 -1.808161964640e+00 +1.310513938212e+02
 1.43000000e+02 -2.073593088253e+00 +1.285943601021e+02 -2.277969190363e+01 +1.616719555397e+02 -2.277969190364e+01 +1.616719555397e+02 -2.078982754565e+00 +1.284216213802e+02
 1.44000000e+02 -2.438064158996e+00 +1.260994765926e+02 -2.074889458392e+01 +1.507141604511e+02 -2.074889458393e+01 +1.507141604509e+02 -2.444518753594e+00 +1.259162651663e+02
 1.45000000e+02 -2.914180398045e+00 +1.241163373672e+02 -1.873523070499e+01 +1.375192328489e+02 -1.873523070499e+01 +1.375192328489e+02 -2.922002104231e+00 +1.239232230169e+02
 1.46000000e+02 -3.468236197825e+00 +1.232785200207e+02 -1.687106565487e+01 +1.218765900240e+02 -1.687106565486e+01 +1.218765900240e+02 -3.477659368468e+00 +1.230776911526e+02
 1.47000000e+02 -3.954888734617e+00 +1.240420782925e+02 -1.532426588499e+01 +1.041607359513e+02 -1.532426588499e+01 +1.041607359513e+02 -3.965744323601e+00 +1.238369495326e+02
 1.48000000e+02 -4.178145557166e+00 +1.256988382557e+02 -1.421077353605e+01 +8.552406640745e+01 -1.421077353606e+01 +8.552406640745e+01 -4.189703605544e+00 +1.254902680505e+02
 1.49000000e+02 -4.128904877405e+00 +1.265763799357e+02 -1.350225506770e+01 +6.739141095847e+01 -1.350225506771e+01 +6.739141095847e+01 -4.140559514240e+00 +1.263598077181e+02
 1.50000000e+02 -3.997542392325e+00 +1.258261966690e+02 -1.305041836245e+01 +5.062358583987e+01 -1.305041836245e+01 +5.062358583981e+01 -4.009403988309e+00 +1.255952689290e+02
 1.51000000e+02 -3.949990632074e+00 +1.237628964849e+02 -1.269449567057e+01 +3.527372125712e+01 -1.269449567057e+01 +3.527372125710e+01 -3.962655390357e+00 +1.235129243136e+02
 1.52000000e+02 -4.057685035410e+00 +1.210108162114e+02 -1.232848566565e+01 +2.091163387704e+01 -1.232848566566e+01 +2.091163387707e+01 -4.071956141645e+00 +1.207389002930e+02
 1.53000000e+02 -4.344245971289e+00 +1.181193834493e+02 -1.190787536863e+01 +6.970144294646e+00 -1.190787536864e+01 +6.970144294663e+00 -4.361114723972e+00 +1.178240118399e+02
 1.54000000e+02 -4.817359697596e+00 +1.156263789112e+02 -1.143561858161e+01 -7.073971682343e+00 -1.143561858160e+01 -7.073971682327e+00 -4.838105787609e+00 +1.153081029795e+02
 1.55000000e+02 -5.461302026905e+00 +1.142108135603e+02 -1.094936041665e+01 -2.161233385477e+01 -1.094936041664e+01 -2.161233385467e+01 -5.487517480402e+00 +1.138747352871e+02
 1.56000000e+02 -6.191657326035e+00 +1.147026506359e+02 -1.051009765901e+01 -3.683285961065e+01 -1.051009765901e+01 -3.683285961069e+01 -6.224769435319e+00 +1.143627855809e+02
 1.57000000e+02 -6.799731008131e+00 +1.176027932537e+02 -1.018501290116e+01 -5.265550242617e+01 -1.018501290116e+01 -5.265550242624e+01 -6.839369700452e+00 +1.172831113639e+02
 1.58000000e+02 -7.015203504979e+00 +1.220557906923e+02 -1.002199525773e+01 -6.873644861343e+01 -1.002199525772e+01 -6.873644861351e+01 -7.057533778330e+00 +1.217745728792e+02
 1.59000000e+02 -6.763740017948e+00 +1.258399019553e+02 -1.002716348899e+01 -8.460005764584e+01 -1.002716348900e+01 -8.460005764594e+01 -6.803813130372e+00 +1.255875176230e+02
 1.60000000e+02 -6.256190866556e+00 +1.273304094578e+02 -1.016285598229e+01 -9.984744331757e+01 -1.016285598229e+01 -9.984744331752e+01 -6.292078334460e+00 +1.270788780076e+02
 1.61000000e+02 -5.745340252877e+00 +1.264986688463e+02 -1.036747677528e+01 -1.143013076481e+02 -1.036747677528e+01 -1.143013076482e+02 -5.778023565039e+00 +1.262244995372e+02
 1.62000000e+02 -5.366606132049e+00 +1.240656296960e+02 -1.058008228465e+01 -1.280172587307e+02 -1.058008228466e+01 -1.280172587307e+02 -5.398042956389e+00 +1.237552756447e+02
 1.63000000e+02 -5.161717612044e+00 +1.207312807698e+02 -1.075547094538e+01 -1.412128103594e+02 -1.075547094539e+01 -1.412128103595e+02 -5.193948749650e+00 +1.203774387665e+02
 1.64000000e+02 -5.134608941881e+00 +1.169999139219e+02 -1.086897265666e+01 -1.541891673904e+02 -1.086897265666e+01 -1.541891673904e+02 -5.169707377576e+00 +1.165984167983e+02
 1.65000000e+02 -5.280982676609e+00 +1.132592929458e+02 -1.091654786933e+01 -1.672765619146e+02 -1.091654786933e+01 -1.672765619146e+02 -5.321291514508e+00 +1.128084061346e+02
 1.66000000e+02 -5.593924011915e+00 +1.099058602361e+02 -1.091464544196e+01 +1.792040617833e+02 -1.091464544197e+01 +1.792040617831e+02 -5.642334243937e+00 +1.094081546890e+02
 1.67000000e+02 -6.050002579114e+00 +1.074474584772e+02 -1.090090556242e+01 +1.649841722864e+02 -1.090090556241e+01 +1.649841722863e+02 -6.109994992133e+00 +1.069151308871e+02
 1.68000000e+02 -6.574058272505e+00 +1.064877333032e+02 -1.093326827295e+01 +1.499140747569e+02 -1.093326827295e+01 +1.499140747568e+02 -6.648743690328e+00 +1.059513358367e+02
 1.69000000e+02 -7.000098786684e+00 +1.073670477227e+02 -1.108195936826e+01 +1.340487639354e+02 -1.108195936827e+01 +1.340487639354e+02 -7.089074707059e+00 +1.068782178516e+02
 1.70000000e+02 -7.114502483597e+00 +1.094215495142e+02 -1.140980218061e+01 +1.177026329161e+02 -1.140980218060e+01 +1.177026329161e+02 -7.210295698477e+00 +1.090254328793e+02
 1.71000000e+02 -6.841099451595e+00 +1.108955456556e+02 -1.194655758066e+01 +1.013921911462e+02 -1.194655758066e+01 +1.013921911461e+02 -6.932578377780e+00 +1.105845666309e+02
 1.72000000e+02 -6.332468139476e+00 +1.103353453790e+02 -1.267551815038e+01 +8.565429661565e+01 -1.267551815037e+01 +8.565429661565e+01 -6.413327292117e+00 +1.100563020117e+02
 1.73000000e+02 -5.801614143736e+00 +1.075545728063e+02 -1.354447716351e+01 +7.085772266165e+01 -1.354447716351e+01 +7.085772266163e+01 -5.871899659684e+00 +1.072547182345e+02
 1.74000000e+02 -5.372058409720e+00 +1.031037705759e+02 -1.449063352498e+01 +5.713440259792e+01 -1.449063352499e+01 +5.713440259800e+01 -5.434467552397e+00 +1.027501050034e+02
 1.75000000e+02 -5.078000726097e+00 +9.756710242373e+01 -1.546052361741e+01 +4.442964624179e+01 -1.546052361741e+01 +4.442964624182e+01 -5.135326990142e+00 +9.714184342522e+01
 1.76000000e+02 -4.910830028366e+00 +9.132490641777e+01 -1.641766601187e+01 +3.259081998992e+01 -1.641766601188e+01 +3.259081998996e+01 -4.965201156571e+00 +9.081796564917e+01
 1.77000000e+02 -4.849647641999e+00 +8.457065209703e+01 -1.734165609175e+01 +2.143685454838e+01 -1.734165609174e+01 +2.143685454835e+01 -4.902479115529e+00 +8.397509891218e+01
 1.78000000e+02 -4.873494494731e+00 +7.737772578959e+01 -1.822421351990e+01 +1.079642415308e+01 -1.822421351990e+01 +1.079642415311e+01 -4.925583819872e+00 +7.668771240834e+01
 1.79000000e+02 -4.964392079643e+00 +6.975201554195e+01 -1.906524763213e+01 +5.236447899415e-01 -1.906524763213e+01 +5.236447899191e-01 -5.015984262751e+00 +6.896208011120e+01
 1.80000000e+02 -5.106928092297e+00 +6.166483114597e+01 -1.986988247206e+01 -9.498019960450e+00 -1.986988247207e+01 -9.498019960439e+00 -5.157726131661e+00 +6.076998992637e+01
 1.81000000e+02 -5.286833752828e+00 +5.307323778315e+01 -2.064642676930e+01 -1.935676839846e+01 -2.064642676930e+01 -1.935676839847e+01 -5.335969588250e+00 +5.206964969291e+01
 1.82000000e+02 -5.489464879733e+00 +4.393454282538e+01 -2.140501844510e+01 -2.911497046484e+01 -2.140501844509e+01 -2.911497046484e+01 -5.535464066040e+00 +4.282070441075e+01
 1.83000000e+02 -5.698585871837e+00 +3.421935997075e+01 -2.215668465229e+01 -3.881181540809e+01 -2.215668465229e+01 -3.881181540796e+01 -5.739376686880e+00 +3.299780354295e+01
 1.84000000e+02 -5.895787718347e+00 +2.392542363998e+01 -2.291263527237e+01 -4.846575224541e+01 -2.291263527237e+01 -4.846575224546e+01 -5.928821664988e+00 +2.260473968800e+01
 1.85000000e+02 -6.060924802655e+00 +1.309187982825e+01 -2.368368333131e+01 -5.807681518435e+01 -2.368368333130e+01 -5.807681518430e+01 -6.083472857786e+00 +1.168856343181e+01
 1.86000000e+02 -6.173884525581e+00 +1.810879148796e+00 -2.447974494138e+01 -6.762906178463e+01 -2.447974494138e+01 -6.762906178469e+01 -6.183524038949e+00 +3.501270674984e-01
 1.87000000e+02 -6.217601538539e+00 -9.769169343764e+00 -2.530941328877e+01 -7.709332588823e+01 -2.530941328876e+01 -7.709332588800e+01 -6.212801082015e+00 -1.125467284150e+01
 1.88000000e+02 -6.181502660647e+00 -2.145406159146e+01 -2.617962665567e+01 -8.643037277096e+01 -2.617962665568e+01 -8.643037277092e+01 -6.162095383807e+00 -2.292774125081e+01
 1.89000000e+02 -6.063960487054e+00 -3.302849023810e+01 -2.709545980062e+01 -9.559439115959e+01 -2.709545980063e+01 -9.559439115978e+01 -6.031278947567e+00 -3.445502339422e+01
 1.90000000e+02 -5.872506770754e+00 -4.428790554621e+01 -2.806006242533e+01 -1.045366131235e+02 -2.806006242532e+01 -1.045366131234e+02 -5.829097165871e+00 -4.563808599742e+01
 1.91000000e+02 -5.621640988882e+00 -5.506606407551e+01 -2.907475162990e+01 -1.132087611015e+02 -2.907475162992e+01 -1.132087611017e+02 -5.570691620530e+00 -5.631969162306e+01
 1.92000000e+02 -5.329281137352e+00 -6.524957999258e+01 -3.013924353794e+01 -1.215660078607e+02 -3.013924353791e+01 -1.215660078605e+02 -5.274015586480e+00 -6.639583987596e+01
 1.93000000e+02 -5.013316899889e+00 -7.477820497920e+01 -3.125198995766e+01 -1.295692001143e+02 -3.125198995763e+01 -1.295692001142e+02 -4.956550356627e+00 -7.581418198558e+01
 1.94000000e+02 -4.689241541393e+00 -8.363552023428e+01 -3.241057477222e+01 -1.371862143307e+02 -3.241057477217e+01 -1.371862143305e+02 -4.633164690106e+00 -8.456393523032e+01
 1.95000000e+02 -4.369071321091e+00 -9.183616526871e+01 -3.361212398605e+01 -1.443924445437e+02 -3.361212398602e+01 -1.443924445442e+02 -4.315221308469e+00 -9.266318996643e+01
 1.96000000e+02 -4.061254486037e+00 -9.941394185092e+01 -3.485369161067e+01 -1.511705301711e+02 -3.485369161067e+01 -1.511705301705e+02 -4.010595664696e+00 -1.001474990883e+02
 1.97000000e+02 -3.771135958381e+00 -1.064126734408e+02 -3.613259710844e+01 -1.575094951151e+02 -3.613259710836e+01 -1.575094951147e+02 -3.724183301599e+00 -1.070612883002e+02
 1.98000000e+02 -3.501627403433e+00 -1.128800074603e+02 -3.744670480811e+01 -1.634034839109e+02 -3.744670480808e+01 -1.634034839108e+02 -3.458570874806e+00 -1.134521117890e+02
 1.99000000e+02 -3.253872463319e+00 -1.188635983095e+02 -3.879464848921e+01 -1.688502554730e+02 -3.879464848932e+01 -1.688502554720e+02 -3.214682843859e+00 -1.193671534026e+02
 2.00000000e+02 -3.027811132011e+00 -1.244089622994e+02 -4.017601382325e+01 -1.738495441604e+02 -4.017601382321e+01 -1.738495441605e+02 -2.992321797255e+00 -1.248512834372e+02
