#  GHZ S DB R 50.0
 1.00000000e-02 -3.484802179436e+01 +9.080432439729e-01 -1.586095428706e-01 -2.603201156313e-02 -1.586095428682e-01 -2.603201153914e-02 -3.484808849804e+01 +9.077588737341e-01
 2.00000000e-02 -3.484239445402e+01 +1.800843924569e+00 -1.586655280897e-01 -5.180585530553e-02 -1.586655280906e-01 -5.180585530930e-02 -3.484256091723e+01 +1.800945721348e+00
 5.00000000e-01 -3.276900706071e+01 +3.664852104049e+01 -1.707299687406e-01 -1.242028730287e+00 -1.707299687406e-01 -1.242028730287e+00 -3.276782088814e+01 +3.664376721252e+01
 1.00000000e+00 -2.953202765473e+01 +5.536972701967e+01 -1.920559030740e-01 -2.390508697118e+00 -1.920559030741e-01 -2.390508697118e+00 -2.952846848281e+01 +5.535517138068e+01
 1.50000000e+00 -2.674053636360e+01 +6.416734370259e+01 -2.136810742944e-01 -3.475362147504e+00 -2.136810742943e-01 -3.475362147504e+00 -2.673806457048e+01 +6.412736468537e+01
 2.00000000e+00 -2.450543555850e+01 +6.849523077054e+01 -2.335191696302e-01 -4.527758694400e+00 -2.335191696302e-01 -4.527758694400e+00 -2.450478349747e+01 +6.844657249456e+01
 2.50000000e+00 -2.269399829474e+01 +7.072588420646e+01 -2.520128901238e-01 -5.565872383494e+00 -2.520128901238e-01 -5.565872383494e+00 -2.269431329834e+01 +7.067239283364e+01
 3.00000000e+00 -2.118675506048e+01 +7.186886061082e+01 -2.700230735060e-01 -6.597997287595e+00 -2.700230735060e-01 -6.597997287595e+00 -2.118769688735e+01 +7.181056569764e+01
 3.50000000e+00 -1.990171024622e+01 +7.238868566653e+01 -2.882446516934e-01 -7.627520659720e+00 -2.882446516933e-01 -7.627520659720e+00 -1.990311951714e+01 +7.232557425929e+01
 4.00000000e+00 -1.878416933495e+01 +7.252079581677e+01 -3.071558246128e-01 -8.655683988164e+00 -3.071558246128e-01 -8.655683988164e+00 -1.878594110915e+01 +7.245280191272e+01
 4.50000000e+00 -1.779685844036e+01 +7.239557962538e+01 -3.270729717380e-01 -9.682821766785e+00 -3.270729717380e-01 -9.682821766785e+00 -1.779892412074e+01 +7.232260649943e+01
 5.00000000e+00 -1.691355069637e+01 +7.209085152618e+01 -3.482045887125e-01 -1.070889069831e+01 -3.482045887125e-01 -1.070889069831e+01 -1.691586349945e+01 +7.201282248257e+01
 5.50000000e+00 -1.611519730341e+01 +7.165598334049e+01 -3.706888071086e-01 -1.173369630721e+01 -3.706888071086e-01 -1.173369630721e+01 -1.611772146565e+01 +7.157284390016e+01
 6.00000000e+00 -1.538756216308e+01 +7.112390039517e+01 -3.946175372842e-01 -1.275699124451e+01 -3.946175372842e-01 -1.275699124451e+01 -1.539026792144e+01 +7.103560354620e+01
 6.50000000e+00 -1.471973792972e+01 +7.051746986082e+01 -4.200518074789e-01 -1.377851795302e+01 -4.200518074789e-01 -1.377851795302e+01 -1.472259989278e+01 +7.042396555837e+01
 7.00000000e+00 -1.410318636787e+01 +6.985311207550e+01 -4.470315900668e-01 -1.479802659249e+01 -4.470315900668e-01 -1.479802659249e+01 -1.410618310104e+01 +6.975434406250e+01
 7.50000000e+00 -1.353109888365e+01 +6.914294963643e+01 -4.755821913768e-01 -1.581528182326e+01 -4.755821913768e-01 -1.581528182326e+01 -1.353421268576e+01 +6.903885671002e+01
 8.00000000e+00 -1.299795834612e+01 +6.839614385893e+01 -5.057184786547e-01 -1.683006462393e+01 -5.057184786547e-01 -1.683006462393e+01 -1.300117491769e+01 +6.828666270632e+01
 8.50000000e+00 -1.249923113597e+01 +6.761975776739e+01 -5.374477270489e-01 -1.784217199925e+01 -5.374477270489e-01 -1.784217199925e+01 -1.250253912984e+01 +6.750482575084e+01
 9.00000000e+00 -1.203114574695e+01 +6.681933162740e+01 -5.707715731777e-01 -1.885141589903e+01 -5.707715731777e-01 -1.885141589903e+01 -1.203453626360e+01 +6.669888887516e+01
 9.50000000e+00 -1.159053035337e+01 +6.599927758804e+01 -6.056873814447e-01 -1.985762194403e+01 -6.056873814447e-01 -1.985762194403e+01 -1.159399643774e+01 +6.587326825928e+01
 1.00000000e+01 -1.117469146052e+01 +6.516315689304e+01 -6.421892181432e-01 -2.086062821287e+01 -6.421892181432e-01 -2.086062821287e+01 -1.117822763779e+01 +6.503152968661e+01
 1.05000000e+01 -1.078132176241e+01 +6.431387874150e+01 -6.802685593999e-01 -2.186028418664e+01 -6.802685593999e-01 -2.186028418664e+01 -1.078492363553e+01 +6.417658677903e+01
 1.10000000e+01 -1.040842914575e+01 +6.345384557468e+01 -7.199148161257e-01 -2.285644987802e+01 -7.199148161257e-01 -2.285644987802e+01 -1.041209306988e+01 +6.331084581082e+01
 1.15000000e+01 -1.005428126122e+01 +6.258506090094e+01 -7.611157324188e-01 -2.384899513975e+01 -7.611157324187e-01 -2.384899513975e+01 -1.005800410391e+01 +6.243631323699e+01
 1.20000000e+01 -9.717361735175e+00 +6.170921039355e+01 -8.038576966762e-01 -2.483779912935e+01 -8.038576966762e-01 -2.483779912935e+01 -9.721140722083e+00 +6.155467668789e+01
 1.25000000e+01 -9.396335213296e+00 +6.082772359976e+01 -8.481259926812e-01 -2.582274989472e+01 -8.481259926812e-01 -2.582274989472e+01 -9.400167848557e+00 +6.066736675533e+01
 1.30000000e+01 -9.090019195222e+00 +5.994182141073e+01 -8.939050088181e-01 -2.680374404091e+01 -8.939050088181e-01 -2.680374404091e+01 -9.093903236016e+00 +5.977560466754e+01
 1.35000000e+01 -8.797361150108e+00 +5.905255298529e+01 -9.411784166419e-01 -2.778068644177e+01 -9.411784166419e-01 -2.778068644177e+01 -8.801294611712e+00 +5.888043946890e+01
 1.40000000e+01 -8.517419777483e+00 +5.816082480523e+01 -9.899293253360e-01 -2.875348997120e+01 -9.899293253360e-01 -2.875348997120e+01 -8.521400947922e+00 +5.798277731112e+01
 1.45000000e+01 -8.249349547470e+00 +5.726742380574e+01 -1.040140415992e+00 -2.972207524114e+01 -1.040140415992e+00 -2.972207524114e+01 -8.253376997954e+00 +5.708340475650e+01
 1.50000000e+01 -7.992387854437e+00 +5.637303598942e+01 -1.091794058551e+00 -3.068637034227e+01 -1.091794058551e+00 -3.068637034227e+01 -7.996460439336e+00 +5.618300749093e+01
 1.55000000e+01 -7.745844269010e+00 +5.547826154814e+01 -1.144872413880e+00 -3.164631058818e+01 -1.144872413880e+00 -3.164631058818e+01 -7.749961114809e+00 +5.528218548301e+01
 1.60000000e+01 -7.509091488067e+00 +5.458362724726e+01 -1.199357523301e+00 -3.260183826458e+01 -1.199357523301e+00 -3.260183826458e+01 -7.513251973769e+00 +5.438146536420e+01
 1.65000000e+01 -7.281557669429e+00 +5.368959663819e+01 -1.255231387599e+00 -3.355290238412e+01 -1.255231387599e+00 -3.355290238412e+01 -7.285761401850e+00 +5.348131061604e+01
 1.70000000e+01 -7.062719904182e+00 +5.279657853327e+01 -1.312476037248e+00 -3.449945844683e+01 -1.312476037248e+00 -3.449945844683e+01 -7.066966691238e+00 +5.258213001254e+01
 1.75000000e+01 -6.852098629986e+00 +5.190493408059e+01 -1.371073595207e+00 -3.544146820506e+01 -1.371073595207e+00 -3.544146820506e+01 -6.856388454315e+00 +5.168428466368e+01
 1.80000000e+01 -6.649252827497e+00 +5.101498270454e+01 -1.431006333346e+00 -3.637889943200e+01 -1.431006333346e+00 -3.637889943200e+01 -6.653585821920e+00 +5.078809392987e+01
 1.85000000e+01 -6.453775872156e+00 +5.012700712302e+01 -1.492256723294e+00 -3.731172569287e+01 -1.492256723294e+00 -3.731172569287e+01 -6.458152297805e+00 +4.989384041965e+01
 1.90000000e+01 -6.265291937162e+00 +4.924125760943e+01 -1.554807482329e+00 -3.823992611814e+01 -1.554807482329e+00 -3.823992611814e+01 -6.269712164622e+00 +4.900177423814e+01
 1.95000000e+01 -6.083452862243e+00 +4.835795563378e+01 -1.618641614798e+00 -3.916348517854e+01 -1.618641614798e+00 -3.916348517854e+01 -6.087917355728e+00 +4.811211662009e+01
 2.00000000e+01 -5.907935417735e+00 +4.747729699082e+01 -1.683742449463e+00 -4.008239246178e+01 -1.683742449463e+00 -4.008239246178e+01 -5.912444722138e+00 +4.722506305423e+01
 2.05000000e+01 -5.738438905601e+00 +4.659945450244e+01 -1.750093673107e+00 -4.099664245122e+01 -1.750093673107e+00 -4.099664245122e+01 -5.742993636134e+00 +4.634078598506e+01
 2.10000000e+01 -5.574683048723e+00 +4.572458036456e+01 -1.817679360673e+00 -4.190623430663e+01 -1.817679360673e+00 -4.190623430663e+01 -5.579283882831e+00 +4.545943716158e+01
 2.15000000e+01 -5.416406127789e+00 +4.485280819598e+01 -1.886484002216e+00 -4.281117164752e+01 -1.886484002216e+00 -4.281117164752e+01 -5.421053798982e+00 +4.458114968965e+01
 2.20000000e+01 -5.263363331586e+00 +4.398425483599e+01 -1.956492526864e+00 -4.371146233948e+01 -1.956492526864e+00 -4.371146233948e+01 -5.268058624869e+00 +4.370603983394e+01
 2.25000000e+01 -5.115325291850e+00 +4.311902192913e+01 -2.027690324009e+00 -4.460711828386e+01 -2.027690324009e+00 -4.460711828386e+01 -5.120069040439e+00 +4.283420860760e+01
 2.30000000e+01 -4.972076778262e+00 +4.225719732867e+01 -2.100063261929e+00 -4.549815521142e+01 -2.100063261929e+00 -4.549815521142e+01 -4.976869861322e+00 +4.196574318084e+01
 2.35000000e+01 -4.833415532829e+00 +4.139885634507e+01 -2.173597703995e+00 -4.638459248019e+01 -2.173597703995e+00 -4.638459248019e+01 -4.838258873999e+00 +4.110071813415e+01
 2.40000000e+01 -4.699151225949e+00 +4.054406286104e+01 -2.248280522656e+00 -4.726645287816e+01 -2.248280522656e+00 -4.726645287816e+01 -4.704045792467e+00 +4.023919657791e+01
 2.45000000e+01 -4.569104519029e+00 +3.969287033127e+01 -2.324099111348e+00 -4.814376243107e+01 -2.324099111348e+00 -4.814376243107e+01 -4.574051321293e+00 +3.938123115623e+01
 2.50000000e+01 -4.443106220635e+00 +3.884532268207e+01 -2.401041394486e+00 -4.901655021567e+01 -2.401041394486e+00 -4.901655021567e+01 -4.448106312094e+00 +3.852686495009e+01
 2.55000000e+01 -4.320996525014e+00 +3.800145512346e+01 -2.479095835684e+00 -4.988484817883e+01 -2.479095835684e+00 -4.988484817883e+01 -4.326051002286e+00 +3.767613229256e+01
 2.60000000e+01 -4.202624323318e+00 +3.716129488458e+01 -2.558251444352e+00 -5.074869096269e+01 -2.558251444352e+00 -5.074869096269e+01 -4.207734326464e+00 +3.682905950674e+01
 2.65000000e+01 -4.087846579161e+00 +3.632486188144e+01 -2.638497780786e+00 -5.160811573615e+01 -2.638497780786e+00 -5.160811573615e+01 -4.093013292075e+00 +3.598566557569e+01
 2.70000000e+01 -3.976527761281e+00 +3.549216932476e+01 -2.719824959899e+00 -5.246316203278e+01 -2.719824959899e+00 -5.246316203278e+01 -3.981752412151e+00 +3.514596275194e+01
 2.75000000e+01 -3.868539326961e+00 +3.466322427449e+01 -2.802223653709e+00 -5.331387159539e+01 -2.802223653709e+00 -5.331387159539e+01 -3.873823188782e+00 +3.430995711345e+01
 2.80000000e+01 -3.763759250724e+00 +3.383802814681e+01 -2.885685092688e+00 -5.416028822726e+01 -2.885685092688e+00 -5.416028822726e+01 -3.769103641847e+00 +3.347764907158e+01
 2.85000000e+01 -3.662071593476e+00 +3.301657717838e+01 -2.970201066109e+00 -5.500245765018e+01 -2.970201066109e+00 -5.500245765018e+01 -3.667477878178e+00 +3.264903383620e+01
 2.90000000e+01 -3.563366107872e+00 +3.219886285221e+01 -3.055763921461e+00 -5.584042736919e+01 -3.055763921461e+00 -5.584042736919e+01 -3.568835696951e+00 +3.182410184212e+01
 2.95000000e+01 -3.467537876193e+00 +3.138487228886e+01 -3.142366563067e+00 -5.667424654415e+01 -3.142366563067e+00 -5.667424654415e+01 -3.473072227578e+00 +3.100283914058e+01
 3.00000000e+01 -3.374486977476e+00 +3.057458860612e+01 -3.230002449958e+00 -5.750396586798e+01 -3.230002449958e+00 -5.750396586798e+01 -3.380087596855e+00 +3.018522775924e+01
 3.05000000e+01 -3.284118180989e+00 +2.976799125026e+01 -3.318665593128e+00 -5.832963745157e+01 -3.318665593128e+00 -5.832963745157e+01 -3.289786622456e+00 +2.937124603337e+01
 3.10000000e+01 -3.196340663524e+00 +2.896505630109e+01 -3.408350552216e+00 -5.915131471525e+01 -3.408350552216e+00 -5.915131471525e+01 -3.202078530249e+00 +2.856086891093e+01
 3.15000000e+01 -3.111067748227e+00 +2.816575675329e+01 -3.499052431714e+00 -5.996905228668e+01 -3.499052431714e+00 -5.996905228668e+01 -3.116876693149e+00 +2.775406823368e+01
 3.20000000e+01 -3.028216662957e+00 +2.737006277596e+01 -3.590766876760e+00 -6.078290590507e+01 -3.590766876760e+00 -6.078290590507e+01 -3.034098389508e+00 +2.695081299646e+01
 3.25000000e+01 -2.947708316393e+00 +2.657794195212e+01 -3.683490068582e+00 -6.159293233164e+01 -3.683490068582e+00 -6.159293233165e+01 -2.953664579251e+00 +2.615106958633e+01
 3.30000000e+01 -2.869467090280e+00 +2.578935949976e+01 -3.777218719645e+00 -6.239918926602e+01 -3.777218719645e+00 -6.239918926602e+01 -2.875499696163e+00 +2.535480200324e+01
 3.35000000e+01 -2.793420646400e+00 +2.500427847601e+01 -3.871950068574e+00 -6.320173526853e+01 -3.871950068574e+00 -6.320173526853e+01 -2.799531454899e+00 +2.456197206363e+01
 3.40000000e+01 -2.719499746982e+00 +2.422265996556e+01 -3.967681874884e+00 -6.400062968826e+01 -3.967681874884e+00 -6.400062968826e+01 -2.725690671440e+00 +2.377253958831e+01
 3.45000000e+01 -2.647638087403e+00 +2.344446325461e+01 -4.064412413565e+00 -6.479593259654e+01 -4.064412413565e+00 -6.479593259654e+01 -2.653911095851e+00 +2.298646257583e+01
 3.50000000e+01 -2.577772140165e+00 +2.266964599141e+01 -4.162140469577e+00 -6.558770472588e+01 -4.162140469577e+00 -6.558770472588e+01 -2.584129256311e+00 +2.220369736229e+01
 3.55000000e+01 -2.509841009203e+00 +2.189816433432e+01 -4.260865332276e+00 -6.637600741396e+01 -4.260865332276e+00 -6.637600741396e+01 -2.516284313489e+00 +2.142419876876e+01
 3.60000000e+01 -2.443786293701e+00 +2.112997308839e+01 -4.360586789808e+00 -6.716090255272e+01 -4.360586789808e+00 -6.716090255272e+01 -2.450317924428e+00 +2.064792023699e+01
 3.65000000e+01 -2.379551960657e+00 +2.036502583110e+01 -4.461305123513e+00 -6.794245254220e+01 -4.461305123513e+00 -6.794245254220e+01 -2.386174115192e+00 +1.987481395446e+01
 3.70000000e+01 -2.317084225512e+00 +1.960327502821e+01 -4.563021102345e+00 -6.872072024900e+01 -4.563021102345e+00 -6.872072024900e+01 -2.323799161575e+00 +1.910483096926e+01
 3.75000000e+01 -2.256331440229e+00 +1.884467214021e+01 -4.665735977347e+00 -6.949576896922e+01 -4.665735977347e+00 -6.949576896922e+01 -2.263141477277e+00 +1.833792129580e+01
 3.80000000e+01 -2.197243988255e+00 +1.808916772020e+01 -4.769451476195e+00 -7.026766239566e+01 -4.769451476195e+00 -7.026766239566e+01 -2.204151508967e+00 +1.757403401163e+01
 3.85000000e+01 -2.139774185861e+00 +1.733671150360e+01 -4.874169797828e+00 -7.103646458905e+01 -4.874169797828e+00 -7.103646458905e+01 -2.146781637732e+00 +1.681311734631e+01
 3.90000000e+01 -2.083876189393e+00 +1.658725249034e+01 -4.979893607177e+00 -7.180223995333e+01 -4.979893607177e+00 -7.180223995333e+01 -2.090986086448e+00 +1.605511876259e+01
 3.95000000e+01 -2.029505908007e+00 +1.584073902001e+01 -5.086626030011e+00 -7.256505321456e+01 -5.086626030011e+00 -7.256505321456e+01 -2.036720832640e+00 +1.529998503056e+01
 4.00000000e+01 -1.976620921508e+00 +1.509711884042e+01 -5.194370647903e+00 -7.332496940345e+01 -5.194370647903e+00 -7.332496940345e+01 -1.983943526468e+00 +1.454766229520e+01
 4.05000000e+01 -1.925180402936e+00 +1.435633916996e+01 -5.303131493320e+00 -7.408205384132e+01 -5.303131493320e+00 -7.408205384132e+01 -1.932613413449e+00 +1.379809613766e+01
 4.10000000e+01 -1.875145045575e+00 +1.361834675419e+01 -5.412913044854e+00 -7.483637212928e+01 -5.412913044854e+00 -7.483637212928e+01 -1.882691261639e+00 +1.305123163091e+01
 4.15000000e+01 -1.826476994091e+00 +1.288308791712e+01 -5.523720222585e+00 -7.558799014054e+01 -5.523720222585e+00 -7.558799014054e+01 -1.834139292930e+00 +1.230701338978e+01
 4.20000000e+01 -1.779139779532e+00 +1.215050860725e+01 -5.635558383576e+00 -7.633697401557e+01 -5.635558383576e+00 -7.633697401557e+01 -1.786921118236e+00 +1.156538561606e+01
 4.25000000e+01 -1.733098257922e+00 +1.142055443899e+01 -5.748433317512e+00 -7.708339016006e+01 -5.748433317512e+00 -7.708339016006e+01 -1.741001676281e+00 +1.082629213879e+01
 4.30000000e+01 -1.688318552252e+00 +1.069317072961e+01 -5.862351242463e+00 -7.782730524550e+01 -5.862351242463e+00 -7.782730524550e+01 -1.696347175794e+00 +1.008967645003e+01
 4.35000000e+01 -1.644767997626e+00 +9.968302531902e+00 -5.977318800768e+00 -7.856878621209e+01 -5.977318800768e+00 -7.856878621209e+01 -1.652925040867e+00 +9.355481736552e+00
 4.40000000e+01 -1.602415089384e+00 +9.245894662985e+00 -6.093343055050e+00 -7.930790027400e+01 -6.093343055050e+00 -7.930790027400e+01 -1.610703859318e+00 +8.623650907433e+00
 4.45000000e+01 -1.561229434026e+00 +8.525891729387e+00 -6.210431484322e+00 -8.004471492663e+01 -6.210431484322e+00 -8.004471492663e+01 -1.569653333848e+00 +7.894126618059e+00
 4.50000000e+01 -1.521181702767e+00 +7.808238148609e+00 -6.328591980205e+00 -8.077929795574e+01 -6.328591980205e+00 -8.077929795574e+01 -1.529744235854e+00 +7.166851290565e+00
 4.55000000e+01 -1.482243587566e+00 +7.092878167403e+00 -6.447832843219e+00 -8.151171744834e+01 -6.447832843219e+00 -8.151171744834e+01 -1.490948361735e+00 +6.441767130995e+00
 4.60000000e+01 -1.444387759511e+00 +6.379755876947e+00 -6.568162779144e+00 -8.224204180497e+01 -6.568162779144e+00 -8.224204180497e+01 -1.453238491551e+00 +5.718816143345e+00
 4.65000000e+01 -1.407587829403e+00 +5.668815225068e+00 -6.689590895435e+00 -8.297033975324e+01 -6.689590895435e+00 -8.297033975324e+01 -1.416588349912e+00 +4.997940140662e+00
 4.70000000e+01 -1.371818310448e+00 +4.960000025700e+00 -6.812126697660e+00 -8.369668036233e+01 -6.812126697660e+00 -8.369668036233e+01 -1.380972568987e+00 +4.279080753362e+00
 4.75000000e+01 -1.337054582933e+00 +4.253253965692e+00 -6.935780085955e+00 -8.442113305827e+01 -6.935780085955e+00 -8.442113305827e+01 -1.346366653504e+00 +3.562179434895e+00
 4.80000000e+01 -1.303272860788e+00 +3.548520609134e+00 -7.060561351454e+00 -8.514376763954e+01 -7.060561351454e+00 -8.514376763954e+01 -1.312746947673e+00 +2.847177464916e+00
 4.85000000e+01 -1.270450159951e+00 +2.845743399301e+00 -7.186481172680e+00 -8.586465429276e+01 -7.186481172680e+00 -8.586465429276e+01 -1.280090603909e+00 +2.134015950067e+00
 4.90000000e+01 -1.238564268448e+00 +2.144865658352e+00 -7.313550611860e+00 -8.658386360809e+01 -7.313550611860e+00 -8.658386360809e+01 -1.248375553310e+00 +1.422635822486e+00
 4.95000000e+01 -1.207593718110e+00 +1.445830584880e+00 -7.441781111132e+00 -8.730146659376e+01 -7.441781111132e+00 -8.730146659376e+01 -1.217580477781e+00 +7.129778361567e-01
 5.00000000e+01 -1.177517757865e+00 +7.485812494251e-01 -7.571184488607e+00 -8.801753468944e+01 -7.571184488607e+00 -8.801753468944e+01 -1.187684783767e+00 +4.982561200217e-03
