#   Hz   S  RI   R   50
!
0.000000e+00 4.202033e-03 0.000000e+00 9.959039e-01 0.000000e+00 9.959039e-01 0.000000e+00 4.202033e-03 0.000000e+00
8.750000e+08 4.208908e-03 8.973236e-04 9.958912e-01 -4.020396e-03 9.958912e-01 -4.020396e-03 4.208908e-03 8.973236e-04
1.750000e+09 4.229510e-03 1.794089e-03 9.958533e-01 -8.040092e-03 9.958533e-01 -8.040092e-03 4.229510e-03 1.794089e-03
2.625000e+09 4.263781e-03 2.689740e-03 9.957902e-01 -1.205839e-02 9.957902e-01 -1.205839e-02 4.263781e-03 2.689740e-03
3.500000e+09 4.311624e-03 3.583729e-03 9.957020e-01 -1.607461e-02 9.957020e-01 -1.607461e-02 4.311624e-03 3.583729e-03
4.375000e+09 4.372900e-03 4.475518e-03 9.955889e-01 -2.008808e-02 9.955889e-01 -2.008808e-02 4.372900e-03 4.475518e-03
5.250000e+09 4.447438e-03 5.364582e-03 9.954511e-01 -2.409814e-02 9.954511e-01 -2.409814e-02 4.447438e-03 5.364582e-03
6.125000e+09 4.535027e-03 6.250414e-03 9.952888e-01 -2.810415e-02 9.952888e-01 -2.810415e-02 4.535027e-03 6.250414e-03
7.000000e+09 4.635427e-03 7.132525e-03 9.951025e-01 -3.210551e-02 9.951025e-01 -3.210551e-02 4.635427e-03 7.132525e-03
7.875000e+09 4.748362e-03 8.010448e-03 9.948923e-01 -3.610164e-02 9.948923e-01 -3.610164e-02 4.748362e-03 8.010448e-03
8.750000e+09 4.873529e-03 8.883742e-03 9.946587e-01 -4.009198e-02 9.946587e-01 -4.009198e-02 4.873529e-03 8.883742e-03
9.625000e+09 5.010597e-03 9.751993e-03 9.944021e-01 -4.407604e-02 9.944021e-01 -4.407604e-02 5.010597e-03 9.751993e-03
1.050000e+10 5.159213e-03 1.061481e-02 9.941230e-01 -4.805332e-02 9.941230e-01 -4.805332e-02 5.159213e-03 1.061481e-02
1.137500e+10 5.319000e-03 1.147185e-02 9.938217e-01 -5.202340e-02 9.938217e-01 -5.202340e-02 5.319000e-03 1.147185e-02
1.225000e+10 5.489564e-03 1.232278e-02 9.934988e-01 -5.598587e-02 9.934988e-01 -5.598587e-02 5.489564e-03 1.232278e-02
1.312500e+10 5.670493e-03 1.316730e-02 9.931548e-01 -5.994038e-02 9.931548e-01 -5.994038e-02 5.670493e-03 1.316730e-02
1.400000e+10 5.861367e-03 1.400517e-02 9.927901e-01 -6.388662e-02 9.927901e-01 -6.388662e-02 5.861367e-03 1.400517e-02
1.487500e+10 6.061752e-03 1.483616e-02 9.924054e-01 -6.782433e-02 9.924054e-01 -6.782433e-02 6.061752e-03 1.483616e-02
1.575000e+10 6.271211e-03 1.566008e-02 9.920011e-01 -7.175326e-02 9.920011e-01 -7.175326e-02 6.271211e-03 1.566008e-02
1.662500e+10 6.489299e-03 1.647677e-02 9.915777e-01 -7.567325e-02 9.915777e-01 -7.567325e-02 6.489299e-03 1.647677e-02
1.750000e+10 6.715576e-03 1.728611e-02 9.911359e-01 -7.958415e-02 9.911359e-01 -7.958415e-02 6.715576e-03 1.728611e-02
1.837500e+10 6.949600e-03 1.808802e-02 9.906761e-01 -8.348586e-02 9.906761e-01 -8.348586e-02 6.949600e-03 1.808802e-02
1.925000e+10 7.190934e-03 1.888243e-02 9.901988e-01 -8.737833e-02 9.901988e-01 -8.737833e-02 7.190934e-03 1.888243e-02
2.012500e+10 7.439150e-03 1.966933e-02 9.897045e-01 -9.126152e-02 9.897045e-01 -9.126152e-02 7.439150e-03 1.966933e-02
2.100000e+10 7.693828e-03 2.044870e-02 9.891938e-01 -9.513545e-02 9.891938e-01 -9.513545e-02 7.693828e-03 2.044870e-02
2.187500e+10 7.954560e-03 2.122059e-02 9.886671e-01 -9.900016e-02 9.886671e-01 -9.900016e-02 7.954560e-03 2.122059e-02
2.275000e+10 8.220951e-03 2.198505e-02 9.881248e-01 -1.028557e-01 9.881248e-01 -1.028557e-01 8.220951e-03 2.198505e-02
2.362500e+10 8.492622e-03 2.274216e-02 9.875674e-01 -1.067023e-01 9.875674e-01 -1.067023e-01 8.492622e-03 2.274216e-02
2.450000e+10 8.769210e-03 2.349203e-02 9.869953e-01 -1.105400e-01 9.869953e-01 -1.105400e-01 8.769210e-03 2.349203e-02
2.537500e+10 9.050371e-03 2.423479e-02 9.864089e-01 -1.143689e-01 9.864089e-01 -1.143689e-01 9.050371e-03 2.423479e-02
2.625000e+10 9.335778e-03 2.497057e-02 9.858085e-01 -1.181893e-01 9.858085e-01 -1.181893e-01 9.335778e-03 2.497057e-02
2.712500e+10 9.625127e-03 2.569955e-02 9.851945e-01 -1.220013e-01 9.851945e-01 -1.220013e-01 9.625127e-03 2.569955e-02
2.800000e+10 9.918133e-03 2.642189e-02 9.845671e-01 -1.258052e-01 9.845671e-01 -1.258052e-01 9.918133e-03 2.642189e-02
2.887500e+10 1.021453e-02 2.713778e-02 9.839266e-01 -1.296011e-01 9.839266e-01 -1.296011e-01 1.021453e-02 2.713778e-02
2.975000e+10 1.051408e-02 2.784744e-02 9.832733e-01 -1.333894e-01 9.832733e-01 -1.333894e-01 1.051408e-02 2.784744e-02
3.062500e+10 1.081657e-02 2.855105e-02 9.826074e-01 -1.371702e-01 9.826074e-01 -1.371702e-01 1.081657e-02 2.855105e-02
3.150000e+10 1.112178e-02 2.924884e-02 9.819291e-01 -1.409438e-01 9.819291e-01 -1.409438e-01 1.112178e-02 2.924884e-02
3.237500e+10 1.142955e-02 2.994103e-02 9.812385e-01 -1.447104e-01 9.812385e-01 -1.447104e-01 1.142955e-02 2.994103e-02
3.325000e+10 1.173973e-02 3.062785e-02 9.805358e-01 -1.484704e-01 9.805358e-01 -1.484704e-01 1.173973e-02 3.062785e-02
3.412500e+10 1.205217e-02 3.130951e-02 9.798211e-01 -1.522239e-01 9.798211e-01 -1.522239e-01 1.205217e-02 3.130951e-02
3.500000e+10 1.236676e-02 3.198625e-02 9.790944e-01 -1.559712e-01 9.790944e-01 -1.559712e-01 1.236676e-02 3.198625e-02
3.587500e+10 1.268341e-02 3.265828e-02 9.783558e-01 -1.597125e-01 9.783558e-01 -1.597125e-01 1.268341e-02 3.265828e-02
3.675000e+10 1.300203e-02 3.332583e-02 9.776054e-01 -1.634481e-01 9.776054e-01 -1.634481e-01 1.300203e-02 3.332583e-02
3.762500e+10 1.332258e-02 3.398911e-02 9.768431e-01 -1.671782e-01 9.768431e-01 -1.671782e-01 1.332258e-02 3.398911e-02
3.850000e+10 1.364502e-02 3.464834e-02 9.760691e-01 -1.709029e-01 9.760691e-01 -1.709029e-01 1.364502e-02 3.464834e-02
3.937500e+10 1.396930e-02 3.530371e-02 9.752831e-01 -1.746225e-01 9.752831e-01 -1.746225e-01 1.396930e-02 3.530371e-02
4.025000e+10 1.429544e-02 3.595544e-02 9.744853e-01 -1.783372e-01 9.744853e-01 -1.783372e-01 1.429544e-02 3.595544e-02
4.112500e+10 1.462342e-02 3.660370e-02 9.736755e-01 -1.820471e-01 9.736755e-01 -1.820471e-01 1.462342e-02 3.660370e-02
4.200000e+10 1.495327e-02 3.724868e-02 9.728537e-01 -1.857525e-01 9.728537e-01 -1.857525e-01 1.495327e-02 3.724868e-02
4.287500e+10 1.528501e-02 3.789054e-02 9.720198e-01 -1.894533e-01 9.720198e-01 -1.894533e-01 1.528501e-02 3.789054e-02
4.375000e+10 1.561868e-02 3.852946e-02 9.711737e-01 -1.931499e-01 9.711737e-01 -1.931499e-01 1.561868e-02 3.852946e-02
4.462500e+10 1.595434e-02 3.916557e-02 9.703153e-01 -1.968422e-01 9.703153e-01 -1.968422e-01 1.595434e-02 3.916557e-02
4.550000e+10 1.629204e-02 3.979902e-02 9.694446e-01 -2.005303e-01 9.694446e-01 -2.005303e-01 1.629204e-02 3.979902e-02
4.637500e+10 1.663184e-02 4.042994e-02 9.685613e-01 -2.042145e-01 9.685613e-01 -2.042145e-01 1.663184e-02 4.042994e-02
4.725000e+10 1.697382e-02 4.105844e-02 9.676655e-01 -2.078946e-01 9.676655e-01 -2.078946e-01 1.697382e-02 4.105844e-02
4.812500e+10 1.731804e-02 4.168464e-02 9.667569e-01 -2.115708e-01 9.667569e-01 -2.115708e-01 1.731804e-02 4.168464e-02
4.900000e+10 1.766460e-02 4.230862e-02 9.658355e-01 -2.152431e-01 9.658355e-01 -2.152431e-01 1.766460e-02 4.230862e-02
4.987500e+10 1.801358e-02 4.293047e-02 9.649011e-01 -2.189115e-01 9.649011e-01 -2.189115e-01 1.801358e-02 4.293047e-02
5.075000e+10 1.836506e-02 4.355027e-02 9.639536e-01 -2.225760e-01 9.639536e-01 -2.225760e-01 1.836506e-02 4.355027e-02
5.162500e+10 1.871913e-02 4.416807e-02 9.629929e-01 -2.262366e-01 9.629929e-01 -2.262366e-01 1.871913e-02 4.416807e-02
5.250000e+10 1.907588e-02 4.478393e-02 9.620190e-01 -2.298933e-01 9.620190e-01 -2.298933e-01 1.907588e-02 4.478393e-02
5.337500e+10 1.943540e-02 4.539790e-02 9.610316e-01 -2.335460e-01 9.610316e-01 -2.335460e-01 1.943540e-02 4.539790e-02
5.425000e+10 1.979777e-02 4.601000e-02 9.600307e-01 -2.371948e-01 9.600307e-01 -2.371948e-01 1.979777e-02 4.601000e-02
5.512500e+10 2.016309e-02 4.662026e-02 9.590162e-01 -2.408394e-01 9.590162e-01 -2.408394e-01 2.016309e-02 4.662026e-02
5.600000e+10 2.053144e-02 4.722870e-02 9.579879e-01 -2.444800e-01 9.579879e-01 -2.444800e-01 2.053144e-02 4.722870e-02
5.687500e+10 2.090290e-02 4.783532e-02 9.569459e-01 -2.481163e-01 9.569459e-01 -2.481163e-01 2.090290e-02 4.783532e-02
5.775000e+10 2.127755e-02 4.844011e-02 9.558901e-01 -2.517484e-01 9.558901e-01 -2.517484e-01 2.127755e-02 4.844011e-02
5.862500e+10 2.165547e-02 4.904308e-02 9.548203e-01 -2.553760e-01 9.548203e-01 -2.553760e-01 2.165547e-02 4.904308e-02
5.950000e+10 2.203672e-02 4.964420e-02 9.537365e-01 -2.589992e-01 9.537365e-01 -2.589992e-01 2.203672e-02 4.964420e-02
6.037500e+10 2.242139e-02 5.024346e-02 9.526387e-01 -2.626178e-01 9.526387e-01 -2.626178e-01 2.242139e-02 5.024346e-02
6.125000e+10 2.280952e-02 5.084083e-02 9.515268e-01 -2.662317e-01 9.515268e-01 -2.662317e-01 2.280952e-02 5.084083e-02
6.212500e+10 2.320118e-02 5.143627e-02 9.504007e-01 -2.698408e-01 9.504007e-01 -2.698408e-01 2.320118e-02 5.143627e-02
6.300000e+10 2.359643e-02 5.202975e-02 9.492606e-01 -2.734450e-01 9.492606e-01 -2.734450e-01 2.359643e-02 5.202975e-02
6.387500e+10 2.399531e-02 5.262122e-02 9.481062e-01 -2.770441e-01 9.481062e-01 -2.770441e-01 2.399531e-02 5.262122e-02
6.475000e+10 2.439786e-02 5.321065e-02 9.469377e-01 -2.806381e-01 9.469377e-01 -2.806381e-01 2.439786e-02 5.321065e-02
6.562500e+10 2.480412e-02 5.379799e-02 9.457550e-01 -2.842268e-01 9.457550e-01 -2.842268e-01 2.480412e-02 5.379799e-02
6.650000e+10 2.521413e-02 5.438318e-02 9.445582e-01 -2.878101e-01 9.445582e-01 -2.878101e-01 2.521413e-02 5.438318e-02
6.737500e+10 2.562792e-02 5.496618e-02 9.433472e-01 -2.913878e-01 9.433472e-01 -2.913878e-01 2.562792e-02 5.496618e-02
6.825000e+10 2.604550e-02 5.554693e-02 9.421221e-01 -2.949600e-01 9.421221e-01 -2.949600e-01 2.604550e-02 5.554693e-02
6.912500e+10 2.646689e-02 5.612537e-02 9.408829e-01 -2.985263e-01 9.408829e-01 -2.985263e-01 2.646689e-02 5.612537e-02
7.000000e+10 2.689211e-02 5.670146e-02 9.396296e-01 -3.020869e-01 9.396296e-01 -3.020869e-01 2.689211e-02 5.670146e-02
7.087500e+10 2.732116e-02 5.727514e-02 9.383624e-01 -3.056414e-01 9.383624e-01 -3.056414e-01 2.732116e-02 5.727514e-02
7.175000e+10 2.775404e-02 5.784635e-02 9.370811e-01 -3.091899e-01 9.370811e-01 -3.091899e-01 2.775404e-02 5.784635e-02
7.262500e+10 2.819076e-02 5.841503e-02 9.357860e-01 -3.127321e-01 9.357860e-01 -3.127321e-01 2.819076e-02 5.841503e-02
7.350000e+10 2.863131e-02 5.898114e-02 9.344770e-01 -3.162681e-01 9.344770e-01 -3.162681e-01 2.863131e-02 5.898114e-02
7.437500e+10 2.907568e-02 5.954462e-02 9.331542e-01 -3.197977e-01 9.331542e-01 -3.197977e-01 2.907568e-02 5.954462e-02
7.525000e+10 2.952385e-02 6.010542e-02 9.318177e-01 -3.233208e-01 9.318177e-01 -3.233208e-01 2.952385e-02 6.010542e-02
7.612500e+10 2.997580e-02 6.066349e-02 9.304675e-01 -3.268374e-01 9.304675e-01 -3.268374e-01 2.997580e-02 6.066349e-02
7.700000e+10 3.043152e-02 6.121879e-02 9.291038e-01 -3.303474e-01 9.291038e-01 -3.303474e-01 3.043152e-02 6.121879e-02
7.787500e+10 3.089099e-02 6.177126e-02 9.277265e-01 -3.338506e-01 9.277265e-01 -3.338506e-01 3.089099e-02 6.177126e-02
7.875000e+10 3.135417e-02 6.232087e-02 9.263359e-01 -3.373470e-01 9.263359e-01 -3.373470e-01 3.135417e-02 6.232087e-02
7.962500e+10 3.182103e-02 6.286757e-02 9.249319e-01 -3.408366e-01 9.249319e-01 -3.408366e-01 3.182103e-02 6.286757e-02
8.050000e+10 3.229155e-02 6.341133e-02 9.235146e-01 -3.443193e-01 9.235146e-01 -3.443193e-01 3.229155e-02 6.341133e-02
8.137500e+10 3.276569e-02 6.395211e-02 9.220842e-01 -3.477951e-01 9.220842e-01 -3.477951e-01 3.276569e-02 6.395211e-02
8.225000e+10 3.324341e-02 6.448987e-02 9.206407e-01 -3.512638e-01 9.206407e-01 -3.512638e-01 3.324341e-02 6.448987e-02
8.312500e+10 3.372469e-02 6.502460e-02 9.191841e-01 -3.547254e-01 9.191841e-01 -3.547254e-01 3.372469e-02 6.502460e-02
8.400000e+10 3.420948e-02 6.555625e-02 9.177146e-01 -3.581800e-01 9.177146e-01 -3.581800e-01 3.420948e-02 6.555625e-02
8.487500e+10 3.469774e-02 6.608481e-02 9.162322e-01 -3.616274e-01 9.162322e-01 -3.616274e-01 3.469774e-02 6.608481e-02
8.575000e+10 3.518944e-02 6.661025e-02 9.147371e-01 -3.650677e-01 9.147371e-01 -3.650677e-01 3.518944e-02 6.661025e-02
8.662500e+10 3.568454e-02 6.713255e-02 9.132292e-01 -3.685007e-01 9.132292e-01 -3.685007e-01 3.568454e-02 6.713255e-02
8.750000e+10 3.618299e-02 6.765170e-02 9.117087e-01 -3.719266e-01 9.117087e-01 -3.719266e-01 3.618299e-02 6.765170e-02
8.837500e+10 3.668476e-02 6.816769e-02 9.101757e-01 -3.753452e-01 9.101757e-01 -3.753452e-01 3.668476e-02 6.816769e-02
8.925000e+10 3.718982e-02 6.868050e-02 9.086301e-01 -3.787565e-01 9.086301e-01 -3.787565e-01 3.718982e-02 6.868050e-02
9.012500e+10 3.769811e-02 6.919011e-02 9.070721e-01 -3.821606e-01 9.070721e-01 -3.821606e-01 3.769811e-02 6.919011e-02
9.100000e+10 3.820960e-02 6.969653e-02 9.055017e-01 -3.855574e-01 9.055017e-01 -3.855574e-01 3.820960e-02 6.969653e-02
9.187500e+10 3.872426e-02 7.019976e-02 9.039190e-01 -3.889469e-01 9.039190e-01 -3.889469e-01 3.872426e-02 7.019976e-02
9.275000e+10 3.924205e-02 7.069978e-02 9.023240e-01 -3.923290e-01 9.023240e-01 -3.923290e-01 3.924205e-02 7.069978e-02
9.362500e+10 3.976293e-02 7.119659e-02 9.007169e-01 -3.957039e-01 9.007169e-01 -3.957039e-01 3.976293e-02 7.119659e-02
9.450000e+10 4.028688e-02 7.169020e-02 8.990975e-01 -3.990714e-01 8.990975e-01 -3.990714e-01 4.028688e-02 7.169020e-02
9.537500e+10 4.081386e-02 7.218061e-02 8.974661e-01 -4.024316e-01 8.974661e-01 -4.024316e-01 4.081386e-02 7.218061e-02
9.625000e+10 4.134383e-02 7.266783e-02 8.958226e-01 -4.057845e-01 8.958226e-01 -4.057845e-01 4.134383e-02 7.266783e-02
9.712500e+10 4.187678e-02 7.315185e-02 8.941670e-01 -4.091300e-01 8.941670e-01 -4.091300e-01 4.187678e-02 7.315185e-02
9.800000e+10 4.241267e-02 7.363268e-02 8.924995e-01 -4.124682e-01 8.924995e-01 -4.124682e-01 4.241267e-02 7.363268e-02
9.887500e+10 4.295147e-02 7.411034e-02 8.908199e-01 -4.157991e-01 8.908199e-01 -4.157991e-01 4.295147e-02 7.411034e-02
9.975000e+10 4.349317e-02 7.458482e-02 8.891285e-01 -4.191226e-01 8.891285e-01 -4.191226e-01 4.349317e-02 7.458482e-02
1.006250e+11 4.403774e-02 7.505614e-02 8.874251e-01 -4.224387e-01 8.874251e-01 -4.224387e-01 4.403774e-02 7.505614e-02
1.015000e+11 4.458516e-02 7.552431e-02 8.857098e-01 -4.257474e-01 8.857098e-01 -4.257474e-01 4.458516e-02 7.552431e-02
1.023750e+11 4.513541e-02 7.598933e-02 8.839827e-01 -4.290488e-01 8.839827e-01 -4.290488e-01 4.513541e-02 7.598933e-02
1.032500e+11 4.568847e-02 7.645121e-02 8.822437e-01 -4.323428e-01 8.822437e-01 -4.323428e-01 4.568847e-02 7.645121e-02
1.041250e+11 4.624433e-02 7.690997e-02 8.804929e-01 -4.356294e-01 8.804929e-01 -4.356294e-01 4.624433e-02 7.690997e-02
1.050000e+11 4.680297e-02 7.736561e-02 8.787302e-01 -4.389086e-01 8.787302e-01 -4.389086e-01 4.680297e-02 7.736561e-02
1.058750e+11 4.736439e-02 7.781814e-02 8.769557e-01 -4.421803e-01 8.769557e-01 -4.421803e-01 4.736439e-02 7.781814e-02
1.067500e+11 4.792857e-02 7.826758e-02 8.751695e-01 -4.454446e-01 8.751695e-01 -4.454446e-01 4.792857e-02 7.826758e-02
1.076250e+11 4.849550e-02 7.871392e-02 8.733714e-01 -4.487014e-01 8.733714e-01 -4.487014e-01 4.849550e-02 7.871392e-02
1.085000e+11 4.906517e-02 7.915718e-02 8.715615e-01 -4.519507e-01 8.715615e-01 -4.519507e-01 4.906517e-02 7.915718e-02
1.093750e+11 4.963758e-02 7.959736e-02 8.697399e-01 -4.551925e-01 8.697399e-01 -4.551925e-01 4.963758e-02 7.959736e-02
1.102500e+11 5.021273e-02 8.003448e-02 8.679065e-01 -4.584267e-01 8.679065e-01 -4.584267e-01 5.021273e-02 8.003448e-02
1.111250e+11 5.079060e-02 8.046852e-02 8.660613e-01 -4.616534e-01 8.660613e-01 -4.616534e-01 5.079060e-02 8.046852e-02
1.120000e+11 5.137120e-02 8.089951e-02 8.642043e-01 -4.648724e-01 8.642043e-01 -4.648724e-01 5.137120e-02 8.089951e-02
1.128750e+11 5.195452e-02 8.132743e-02 8.623356e-01 -4.680838e-01 8.623356e-01 -4.680838e-01 5.195452e-02 8.132743e-02
1.137500e+11 5.254057e-02 8.175231e-02 8.604551e-01 -4.712875e-01 8.604551e-01 -4.712875e-01 5.254057e-02 8.175231e-02
1.146250e+11 5.312934e-02 8.217412e-02 8.585629e-01 -4.744834e-01 8.585629e-01 -4.744834e-01 5.312934e-02 8.217412e-02
1.155000e+11 5.372083e-02 8.259288e-02 8.566589e-01 -4.776716e-01 8.566589e-01 -4.776716e-01 5.372083e-02 8.259288e-02
1.163750e+11 5.431505e-02 8.300859e-02 8.547431e-01 -4.808520e-01 8.547431e-01 -4.808520e-01 5.431505e-02 8.300859e-02
1.172500e+11 5.491199e-02 8.342124e-02 8.528157e-01 -4.840244e-01 8.528157e-01 -4.840244e-01 5.491199e-02 8.342124e-02
1.181250e+11 5.551166e-02 8.383082e-02 8.508765e-01 -4.871890e-01 8.508765e-01 -4.871890e-01 5.551166e-02 8.383082e-02
1.190000e+11 5.611406e-02 8.423734e-02 8.489256e-01 -4.903456e-01 8.489256e-01 -4.903456e-01 5.611406e-02 8.423734e-02
1.198750e+11 5.671920e-02 8.464078e-02 8.469629e-01 -4.934941e-01 8.469629e-01 -4.934941e-01 5.671920e-02 8.464078e-02
1.207500e+11 5.732706e-02 8.504114e-02 8.449886e-01 -4.966345e-01 8.449886e-01 -4.966345e-01 5.732706e-02 8.504114e-02
1.216250e+11 5.793767e-02 8.543841e-02 8.430026e-01 -4.997669e-01 8.430026e-01 -4.997669e-01 5.793767e-02 8.543841e-02
1.225000e+11 5.855101e-02 8.583258e-02 8.410050e-01 -5.028910e-01 8.410050e-01 -5.028910e-01 5.855101e-02 8.583258e-02
1.233750e+11 5.916710e-02 8.622363e-02 8.389957e-01 -5.060068e-01 8.389957e-01 -5.060068e-01 5.916710e-02 8.622363e-02
1.242500e+11 5.978592e-02 8.661157e-02 8.369748e-01 -5.091143e-01 8.369748e-01 -5.091143e-01 5.978592e-02 8.661157e-02
1.251250e+11 6.040749e-02 8.699636e-02 8.349422e-01 -5.122134e-01 8.349422e-01 -5.122134e-01 6.040749e-02 8.699636e-02
1.260000e+11 6.103181e-02 8.737801e-02 8.328982e-01 -5.153041e-01 8.328982e-01 -5.153041e-01 6.103181e-02 8.737801e-02
1.268750e+11 6.165887e-02 8.775649e-02 8.308425e-01 -5.183862e-01 8.308425e-01 -5.183862e-01 6.165887e-02 8.775649e-02
1.277500e+11 6.228868e-02 8.813178e-02 8.287753e-01 -5.214598e-01 8.287753e-01 -5.214598e-01 6.228868e-02 8.813178e-02
1.286250e+11 6.292123e-02 8.850388e-02 8.266967e-01 -5.245247e-01 8.266967e-01 -5.245247e-01 6.292123e-02 8.850388e-02
1.295000e+11 6.355652e-02 8.887275e-02 8.246066e-01 -5.275809e-01 8.246066e-01 -5.275809e-01 6.355652e-02 8.887275e-02
1.303750e+11 6.419455e-02 8.923839e-02 8.225051e-01 -5.306284e-01 8.225051e-01 -5.306284e-01 6.419455e-02 8.923839e-02
1.312500e+11 6.483532e-02 8.960078e-02 8.203922e-01 -5.336670e-01 8.203922e-01 -5.336670e-01 6.483532e-02 8.960078e-02
1.321250e+11 6.547882e-02 8.995989e-02 8.182680e-01 -5.366967e-01 8.182680e-01 -5.366967e-01 6.547882e-02 8.995989e-02
1.330000e+11 6.612505e-02 9.031570e-02 8.161324e-01 -5.397174e-01 8.161324e-01 -5.397174e-01 6.612505e-02 9.031570e-02
1.338750e+11 6.677400e-02 9.066820e-02 8.139857e-01 -5.427292e-01 8.139857e-01 -5.427292e-01 6.677400e-02 9.066820e-02
1.347500e+11 6.742566e-02 9.101735e-02 8.118277e-01 -5.457318e-01 8.118277e-01 -5.457318e-01 6.742566e-02 9.101735e-02
1.356250e+11 6.808003e-02 9.136315e-02 8.096586e-01 -5.487253e-01 8.096586e-01 -5.487253e-01 6.808003e-02 9.136315e-02
1.365000e+11 6.873710e-02 9.170557e-02 8.074784e-01 -5.517096e-01 8.074784e-01 -5.517096e-01 6.873710e-02 9.170557e-02
1.373750e+11 6.939686e-02 9.204459e-02 8.052871e-01 -5.546847e-01 8.052871e-01 -5.546847e-01 6.939686e-02 9.204459e-02
1.382500e+11 7.005930e-02 9.238018e-02 8.030848e-01 -5.576504e-01 8.030848e-01 -5.576504e-01 7.005930e-02 9.238018e-02
1.391250e+11 7.072441e-02 9.271232e-02 8.008716e-01 -5.606068e-01 8.008716e-01 -5.606068e-01 7.072441e-02 9.271232e-02
1.400000e+11 7.139217e-02 9.304100e-02 7.986475e-01 -5.635538e-01 7.986475e-01 -5.635538e-01 7.139217e-02 9.304100e-02
1.408750e+11 7.206257e-02 9.336619e-02 7.964126e-01 -5.664913e-01 7.964126e-01 -5.664913e-01 7.206257e-02 9.336619e-02
1.417500e+11 7.273561e-02 9.368787e-02 7.941669e-01 -5.694193e-01 7.941669e-01 -5.694193e-01 7.273561e-02 9.368787e-02
1.426250e+11 7.341126e-02 9.400601e-02 7.919105e-01 -5.723378e-01 7.919105e-01 -5.723378e-01 7.341126e-02 9.400601e-02
1.435000e+11 7.408950e-02 9.432061e-02 7.896434e-01 -5.752466e-01 7.896434e-01 -5.752466e-01 7.408950e-02 9.432061e-02
1.443750e+11 7.477033e-02 9.463163e-02 7.873657e-01 -5.781458e-01 7.873657e-01 -5.781458e-01 7.477033e-02 9.463163e-02
1.452500e+11 7.545373e-02 9.493905e-02 7.850775e-01 -5.810354e-01 7.850775e-01 -5.810354e-01 7.545373e-02 9.493905e-02
