#  GHZ S DB R 50
 1.20000000e+02 -1.876231344819e+01 +1.000629009317e+02 -3.425272488935e+00 -6.764513631464e+01 -3.422219807919e+00 -6.764177360833e+01 -3.425272488935e+00 -6.764513631464e+01 -6.221567593951e+00 +1.853470198104e+01 -6.710329797925e+00 -1.408461661007e+02 -3.422219807919e+00 -6.764177360833e+01 -6.710329797926e+00 -1.408461661007e+02 -6.229405196771e+00 +1.851193015144e+01
 1.21000000e+02 -1.897473126250e+01 +9.915048158900e+01 -3.422773624139e+00 -6.823368102771e+01 -3.419710561070e+00 -6.823053776723e+01 -3.422773624139e+00 -6.823368102771e+01 -6.211449632866e+00 +1.787897712639e+01 -6.723243188016e+00 -1.418659944693e+02 -3.419710561070e+00 -6.823053776723e+01 -6.723243188016e+00 -1.418659944693e+02 -6.219310245357e+00 +1.785597139546e+01
 1.22000000e+02 -1.919325145757e+01 +9.822045989299e+01 -3.420330112470e+00 -6.882267032536e+01 -3.417257305211e+00 -6.881974842773e+01 -3.420330112470e+00 -6.882267032536e+01 -6.201674111791e+00 +1.722678202120e+01 -6.735848482274e+00 -1.428850670891e+02 -3.417257305211e+00 -6.881974842773e+01 -6.735848482274e+00 -1.428850670891e+02 -6.209557075944e+00 +1.720354518195e+01
 1.23000000e+02 -1.941816158126e+01 +9.727142113010e+01 -3.417943383328e+00 -6.941209765834e+01 -3.414861473365e+00 -6.940939899682e+01 -3.417943383328e+00 -6.941209765834e+01 -6.192234156681e+00 +1.657801663141e+01 -6.748145703456e+00 -1.439034207482e+02 -3.414861473365e+00 -6.940939899682e+01 -6.748145703457e+00 -1.439034207482e+02 -6.200138807964e+00 +1.655455135307e+01
 1.24000000e+02 -1.964976922293e+01 +9.630179358236e+01 -3.415614846390e+00 -7.000195628080e+01 -3.412524478875e+00 -6.999948268630e+01 -3.415614846390e+00 -7.000195628080e+01 -6.183123090312e+00 +1.593258164772e+01 -6.760134941845e+00 -1.449210920443e+02 -3.412524478875e+00 -6.999948268630e+01 -6.760134941844e+00 -1.449210920443e+02 -6.191048757644e+00 +1.590889047287e+01
 1.25000000e+02 -1.988840368065e+01 +9.530982662750e+01 -3.413345890952e+00 -7.059223925260e+01 -3.410247714767e+00 -7.058999251520e+01 -3.413345890952e+00 -7.059223925259e+01 -6.174334434041e+00 +1.529037843476e+01 -6.771816354130e+00 -1.459381173996e+02 -3.410247714767e+00 -7.058999251520e+01 -6.771816354130e+00 -1.459381173996e+02 -6.182280439795e+00 +1.526646377634e+01
 1.26000000e+02 -2.013441775553e+01 +9.429356517089e+01 -3.411137885278e+00 -7.118293944183e+01 -3.408032553118e+00 -7.118092131225e+01 -3.411137885279e+00 -7.118293944183e+01 -6.165861909758e+00 +1.465130898131e+01 -6.783190162512e+00 -1.469545330759e+02 -3.408032553118e+00 -7.118092131225e+01 -6.783190162511e+00 -1.469545330759e+02 -6.173827569767e+00 +1.462717311951e+01
 1.27000000e+02 -2.038818967049e+01 +9.325081969497e+01 -3.408992175951e+00 -7.177404952746e+01 -3.405880344430e+00 -7.177226171850e+01 -3.408992175951e+00 -7.177404952746e+01 -6.157699442004e+00 +1.401527585159e+01 -6.794256653976e+00 -1.479703751909e+02 -3.405880344430e+00 -7.177226171850e+01 -6.794256653975e+00 -1.479703751909e+02 -6.165684065593e+00 +1.399092093047e+01
 1.28000000e+02 -2.065012510421e+01 +9.217913105484e+01 -3.406910087229e+00 -7.236556200199e+01 -3.403792417006e+00 -7.236400618999e+01 -3.406910087229e+00 -7.236556200199e+01 -6.149841160301e+00 +1.338218213733e+01 -6.805016179794e+00 -1.489856797359e+02 -3.403792417006e+00 -7.236400619000e+01 -6.805016179794e+00 -1.489856797359e+02 -6.157844050326e+00 +1.335761016135e+01
 1.29000000e+02 -2.092065932017e+01 +9.107572895380e+01 -3.404892920418e+00 -7.295746917435e+01 -3.401770076340e+00 -7.295614700061e+01 -3.404892920418e+00 -7.295746917435e+01 -6.142281401689e+00 +1.275193141080e+01 -6.815469155251e+00 -1.500004825940e+02 -3.401770076340e+00 -7.295614700062e+01 -6.815469155250e+00 -1.500004825940e+02 -6.150301854606e+00 +1.272714424118e+01
 1.30000000e+02 -2.120025935608e+01 +8.993748279142e+01 -3.402941953238e+00 -7.354976317281e+01 -3.399814604512e+00 -7.354867624499e+01 -3.402941953238e+00 -7.354976317281e+01 -6.135014713510e+00 +1.212442767870e+01 -6.825616059602e+00 -1.510148195594e+02 -3.399814604512e+00 -7.354867624499e+01 -6.825616059601e+00 -1.510148195594e+02 -6.143052019456e+00 +1.209942702952e+01
 1.31000000e+02 -2.148942621572e+01 +8.876084327554e+01 -3.401058439205e+00 -7.414243594804e+01 -3.397927259589e+00 -7.414158584153e+01 -3.401058439205e+00 -7.414243594804e+01 -6.128035856443e+00 +1.149957533673e+01 -6.835457436308e+00 -1.520287263588e+02 -3.397927259589e+00 -7.414158584153e+01 -6.835457436308e+00 -1.520287263588e+02 -6.136089299338e+00 +1.147436277090e+01
 1.32000000e+02 -2.178869697292e+01 +8.754177281664e+01 -3.399243607021e+00 -7.473547927631e+01 -3.396109275033e+00 -7.473486753558e+01 -3.399243607021e+00 -7.473547927631e+01 -6.121339807825e+00 +1.087727912502e+01 -6.844993893531e+00 -1.530422386723e+02 -3.396109275033e+00 -7.473486753559e+01 -6.844993893531e+00 -1.530422386723e+02 -6.129408665499e+00 +1.085185605001e+01
 1.33000000e+02 -2.209864664895e+01 +8.627566225888e+01 -3.397498659964e+00 -7.532888476271e+01 -3.394361859129e+00 -7.532851290267e+01 -3.397498659964e+00 -7.532888476271e+01 -6.114921765270e+00 +1.025744408412e+01 -6.854226104940e+00 -1.540553921570e+02 -3.394361859129e+00 -7.532851290267e+01 -6.854226104941e+00 -1.540553921570e+02 -6.123005309613e+00 +1.023181174748e+01
 1.34000000e+02 -2.241988965523e+01 +8.495723092890e+01 -3.395824775303e+00 -7.592264384460e+01 -3.392686194407e+00 -7.592251335182e+01 -3.395824775303e+00 -7.592264384460e+01 -6.108777150619e+00 +9.639975511751e+00 -6.863154810839e+00 -1.550682224707e+02 -3.392686194407e+00 -7.592251335181e+01 -6.863154810839e+00 -1.550682224707e+02 -6.116874647756e+00 +9.614134996409e+00
 1.35000000e+02 -2.275308049204e+01 +8.358040627818e+01 -3.394223103703e+00 -7.651674779503e+01 -3.391083437090e+00 -7.651686012905e+01 -3.394223103703e+00 -7.651674779504e+01 -6.102901614253e+00 +9.024778920108e+00 -6.871780819637e+00 -1.560807652977e+02 -3.391083437090e+00 -7.651686012905e+01 -6.871780819638e+00 -1.560807652977e+02 -6.111012324746e+00 +8.998731139388e+00
 1.36000000e+02 -2.309891324674e+01 +8.213817853739e+01 -3.392694768657e+00 -7.711118772641e+01 -3.389554716540e+00 -7.711154432095e+01 -3.392694768657e+00 -7.711118772641e+01 -6.097291039793e+00 +8.411759993708e+00 -6.880105009712e+00 -1.570930563752e+02 -3.389554716540e+00 -7.711154432095e+01 -6.880105009711e+00 -1.570930563752e+02 -6.105414218871e+00 +8.385505686157e+00
 1.37000000e+02 -2.345811922166e+01 +8.062242477700e+01 -3.391240865918e+00 -7.770595459414e+01 -3.388101134727e+00 -7.770655685827e+01 -3.391240865918e+00 -7.770595459414e+01 -6.091941549218e+00 +7.800824547858e+00 -6.888128331666e+00 -1.581051315216e+02 -3.388101134727e+00 -7.770655685826e+01 -6.888128331666e+00 -1.581051315216e+02 -6.100076447041e+00 +7.774364271728e+00
 1.38000000e+02 -2.383146171126e+01 +7.902369557935e+01 -3.389862462945e+00 -7.830103920048e+01 -3.386723765700e+00 -7.830188851972e+01 -3.389862462945e+00 -7.830103920048e+01 -6.086849508453e+00 +7.191878487509e+00 -6.895851811048e+00 -1.591170266657e+02 -3.386723765700e+00 -7.830188851972e+01 -6.895851811048e+00 -1.591170266657e+02 -6.094995370408e+00 +7.165212614972e+00
 1.39000000e+02 -2.421972649617e+01 +7.733095621773e+01 -3.388560598362e+00 -7.889643219839e+01 -3.385423655081e+00 -7.889752993585e+01 -3.388560598363e+00 -7.889643219839e+01 -6.082011533458e+00 +6.584827766704e+00 -6.903276551551e+00 -1.601287778778e+02 -3.385423655081e+00 -7.889752993585e+01 -6.903276551551e+00 -1.601287778778e+02 -6.090167600495e+00 +6.557956477786e+00
 1.40000000e+02 -2.462370596517e+01 +7.553127292978e+01 -3.387336281428e+00 -7.949212409560e+01 -3.384201819562e+00 -7.949347159295e+01 -3.387336281428e+00 -7.949212409560e+01 -6.077424496871e+00 +5.979578348426e+00 -6.910403738744e+00 -1.611404214019e+02 -3.384201819562e+00 -7.949347159295e+01 -6.910403738745e+00 -1.611404214019e+02 -6.085590005872e+00 +5.952501624571e+00
 1.41000000e+02 -2.504417382259e+01 +7.360943385061e+01 -3.386190491513e+00 -8.008810525867e+01 -3.383059246427e+00 -8.008970383711e+01 -3.386190491513e+00 -8.008810525867e+01 -6.073085535246e+00 +5.376036164906e+00 -6.917234644397e+00 -1.621519936895e+02 -3.383059246427e+00 -8.008970383711e+01 -6.917234644397e+00 -1.621519936895e+02 -6.081259719447e+00 +5.348753782192e+00
 1.42000000e+02 -2.548184596305e+01 +7.154749401598e+01 -3.385124177599e+00 -8.068436591719e+01 -3.381996893081e+00 -8.068621687839e+01 -3.385124177599e+00 -8.068436591719e+01 -6.068992056957e+00 +4.774107078407e+00 -6.923770631432e+00 -1.631635314353e+02 -3.381996893081e+00 -8.068621687839e+01 -6.923770631432e+00 -1.631635314353e+02 -6.077174146409e+00 +4.746618600397e+00
 1.43000000e+02 -2.593732112639e+01 +6.932423568892e+01 -3.384138257781e+00 -8.128089616811e+01 -3.381015686595e+00 -8.128300079496e+01 -3.384138257781e+00 -8.128089616811e+01 -6.065141750831e+00 +4.173696842493e+00 -6.930013159585e+00 -1.641750716141e+02 -3.381015686596e+00 -8.128300079496e+01 -6.930013159585e+00 -1.641750716141e+02 -6.073330972921e+00 +4.146001612680e+00
 1.44000000e+02 -2.641099217593e+01 +6.691454121559e+01 -3.383233618792e+00 -8.187768598008e+01 -3.380116523273e+00 -8.188004553748e+01 -3.383233618792e+00 -8.187768598008e+01 -6.061532595575e+00 +3.574711063763e+00 -6.935963791849e+00 -1.651866515196e+02 -3.380116523273e+00 -8.188004553748e+01 -6.935963791850e+00 -1.651866515196e+02 -6.069728175594e+00 +3.546808197569e+00
 1.45000000e+02 -2.690291505657e+01 +6.428868949037e+01 -3.382411115533e+00 -8.247472519797e+01 -3.379300268228e+00 -8.247734093345e+01 -3.382411115534e+00 -8.247472519797e+01 -6.058162870077e+00 +2.977055164220e+00 -6.941624201758e+00 -1.661983088049e+02 -3.379300268227e+00 -8.247734093345e+01 -6.941624201758e+00 -1.661983088049e+02 -6.066364031861e+00 +2.948943540536e+00
 1.46000000e+02 -2.741261757426e+01 +6.141161555333e+01 -3.381671570624e+00 -8.307200354741e+01 -3.378567754978e+00 -8.307487669166e+01 -3.381671570624e+00 -8.307200354741e+01 -6.055031164678e+00 +2.380634344207e+00 -6.946996181618e+00 -1.672100815247e+02 -3.378567754978e+00 -8.307487669166e+01 -6.946996181618e+00 -1.672100815247e+02 -6.063237131316e+00 +2.352312596427e+00
 1.47000000e+02 -2.793882436717e+01 +5.824222690562e+01 -3.381015773962e+00 -8.366951063944e+01 -3.377919785066e+00 -8.367264240676e+01 -3.381015773963e+00 -8.366951063944e+01 -6.052136393526e+00 +1.785353546167e+00 -6.952081651796e+00 -1.682220081790e+02 -3.377919785066e+00 -8.367264240676e+01 -6.952081651796e+00 -1.682220081790e+02 -6.060346388136e+00 +1.756820052692e+00
 1.48000000e+02 -2.847906911313e+01 +5.473296687985e+01 -3.380444482303e+00 -8.426723597528e+01 -3.377357127688e+00 -8.427062756384e+01 -3.380444482303e+00 -8.426723597528e+01 -6.049477808091e+00 +1.191117419263e+00 -6.956882671149e+00 -1.692341277591e+02 -3.377357127688e+00 -8.427062756384e+01 -6.956882671149e+00 -1.692341277591e+02 -6.057691054694e+00 +1.162370293423e+00
 1.49000000e+02 -2.902916376447e+01 +5.082997783746e+01 -3.379958418845e+00 -8.486516895113e+01 -3.376880519346e+00 -8.486882154312e+01 -3.379958418845e+00 -8.486516895113e+01 -6.047055012008e+00 +5.978302851138e-01 -6.961401448746e+00 -1.702464797945e+02 -3.376880519346e+00 -8.486882154312e+01 -6.961401448747e+00 -1.702464797945e+02 -6.055270736484e+00 +5.688673644661e-01
 1.50000000e+02 -2.958250567412e+01 +4.647446703035e+01 -3.379558272844e+00 -8.546329886304e+01 -3.376490663520e+00 -8.546721362466e+01 -3.379558272844e+00 -8.546329886304e+01 -6.044867977362e+00 +5.396104873020e-03 -6.965640357025e+00 -1.712591044025e+02 -3.376490663520e+00 -8.546721362467e+01 -6.965640357025e+00 -1.712591044025e+02 -6.053085408522e+00 -2.378506015876e-02
 1.51000000e+02 -3.012924282256e+01 +4.160621072325e+01 -3.379244699227e+00 -8.606161491198e+01 -3.376188230363e+00 -8.606579299320e+01 -3.379244699227e+00 -8.606161491198e+01 -6.042917062598e+00 -5.862815519980e-01 -6.969601946539e+00 -1.722720423380e+02 -3.376188230363e+00 -8.606579299320e+01 -6.969601946539e+00 -1.722720423380e+02 -6.051135433365e+00 -6.156837102164e-01
 1.52000000e+02 -3.065540995034e+01 +3.617045055198e+01 -3.379018318232e+00 -8.666010620880e+01 -3.375973856410e+00 -8.666454874292e+01 -3.379018318232e+00 -8.666010620880e+01 -6.041203032211e+00 -1.177299536915e+00 -6.973288962475e+00 -1.732853350462e+02 -3.375973856410e+00 -8.666454874292e+01 -6.973288962475e+00 -1.732853350462e+02 -6.049421580932e+00 -1.206925749223e+00
 1.53000000e+02 -3.114231914439e+01 +3.012943200317e+01 -3.378879715060e+00 -8.725876177946e+01 -3.375848144316e+00 -8.726346988241e+01 -3.378879715060e+00 -8.725876177946e+01 -6.039727078435e+00 -1.767755148792e+00 -6.976704363168e+00 -1.742990247154e+02 -3.375848144316e+00 -8.726346988241e+01 -6.976704363168e+00 -1.742990247154e+02 -6.047945050346e+00 -1.797608801871e+00
 1.54000000e+02 -3.156672491488e+01 +2.347887766952e+01 -3.378829439539e+00 -8.785757057015e+01 -3.375811662613e+00 -8.786254533958e+01 -3.378829439539e+00 -8.785757057015e+01 -6.038490845170e+00 -2.357746157383e+00 -6.979851340827e+00 -1.753131543308e+02 -3.375811662613e+00 -8.786254533958e+01 -6.979851340828e+00 -1.753131543308e+02 -6.046707494018e+00 -2.387830978307e+00
 1.55000000e+02 -3.190245881612e+01 +1.626700150652e+01 -3.378868005806e+00 -8.845652145267e+01 -3.375864945490e+00 -8.846176396657e+01 -3.378868005806e+00 -8.845652145267e+01 -6.037496454358e+00 -2.947370822747e+00 -6.982733344752e+00 -1.763277677299e+02 -3.375864945490e+00 -8.846176396657e+01 -6.982733344753e+00 -1.763277677299e+02 -6.045711044214e+00 -2.977690894521e+00
 1.56000000e+02 -3.212403926551e+01 +8.609314696922e+00 -3.378995892006e+00 -8.905560322974e+01 -3.376008492598e+00 -8.906111454480e+01 -3.378995892006e+00 -8.905560322974e+01 -6.036746535155e+00 -3.536727909717e+00 -6.985354107341e+00 -1.773429096565e+02 -3.376008492598e+00 -8.906111454480e+01 -6.985354107341e+00 -1.773429096565e+02 -6.044958342427e+00 -3.567287687877e+00
 1.57000000e+02 -3.221188813325e+01 +6.890471654994e-01 -3.379213540003e+00 -8.965480464044e+01 -3.376242768875e+00 -8.966058578994e+01 -3.379213540003e+00 -8.965480464044e+01 -6.036244256170e+00 -4.125916696256e+00 -6.987717673224e+00 -1.783586258152e+02 -3.376242768875e+00 -8.966058578994e+01 -6.987717673224e+00 -1.783586258152e+02 -6.044452571862e+00 -4.156721026584e+00
 1.58000000e+02 -3.215742781275e+01 -7.264377816319e+00 -3.379521355107e+00 -9.025411436574e+01 -3.376568204408e+00 -9.026016635694e+01 -3.379521355107e+00 -9.025411436574e+01 -6.035993361164e+00 -4.715036974283e+00 -6.989828431926e+00 -1.793749629237e+02 -3.376568204408e+00 -9.026016635694e+01 -6.989828431926e+00 -1.793749629237e+02 -6.044197493392e+00 -4.746091111673e+00
 1.59000000e+02 -3.196560314482e+01 -1.501536931220e+01 -3.379919705813e+00 -9.085352103411e+01 -3.376985194304e+00 -9.085984484505e+01 -3.379919705812e+00 -9.085352103411e+01 -6.035998208608e+00 -5.304189041156e+00 -6.991691154483e+00 +1.796080312366e+02 -3.376985194305e+00 -9.085984484505e+01 -6.991691154483e+00 +1.796080312366e+02 -6.044197485419e+00 -5.335498669785e+00
 1.60000000e+02 -3.165340649414e+01 -2.236485989599e+01 -3.380408923556e+00 -9.145301322714e+01 -3.377494098602e+00 -9.145960980280e+01 -3.380408923557e+00 -9.145301322714e+01 -6.036263815550e+00 -5.893473679652e+00 -6.993311034517e+00 +1.785903077750e+02 -3.377494098603e+00 -9.145960980280e+01 -6.993311034518e+00 +1.785903077750e+02 -6.044457588084e+00 -5.925044934483e+00
 1.61000000e+02 -3.124525227969e+01 -2.917787468619e+01 -3.380989302488e+00 -9.205257948536e+01 -3.378095242205e+00 -9.205944973300e+01 -3.380989302488e+00 -9.205257948535e+01 -6.036795906311e+00 -6.482992123784e+00 -6.994693734347e+00 +1.775718166505e+02 -3.378095242205e+00 -9.205944973300e+01 -6.994693734347e+00 +1.775718166505e+02 -6.044983552347e+00 -6.514831613536e+00
 1.62000000e+02 -3.076756606581e+01 -3.538872981951e+01 -3.381661099247e+00 -9.265220831403e+01 -3.378788914840e+00 -9.265935309769e+01 -3.381661099247e+00 -9.265220831403e+01 -6.037600966576e+00 -7.072846007324e+00 -6.995845436751e+00 +1.765525066390e+02 -3.378788914840e+00 -9.265935309769e+01 -6.995845436752e+00 +1.765525066390e+02 -6.045781894524e+00 -7.104960838898e+00
 1.63000000e+02 -3.024464078570e+01 -4.098912813031e+01 -3.382424532767e+00 -9.325188818913e+01 -3.379575371055e+00 -9.325930832300e+01 -3.382424532767e+00 -9.325188818913e+01 -6.038686303525e+00 -7.663137290807e+00 -6.996772903147e+00 +1.755323253116e+02 -3.379575371055e+00 -9.325930832301e+01 -6.996772903148e+00 +1.755323253116e+02 -6.046859956914e+00 -7.695535095379e+00
 1.64000000e+02 -2.969648559743e+01 -4.600943093155e+01 -3.383279784075e+00 -9.385160756339e+01 -3.380454830233e+00 -9.385930380404e+01 -3.383279784075e+00 -9.385160756339e+01 -6.040060112695e+00 -8.253968162520e+00 -6.997483538970e+00 +1.745112190258e+02 -3.380454830233e+00 -9.385930380404e+01 -6.997483538970e+00 +1.745112190258e+02 -6.048225975242e+00 -8.286657123254e+00
 1.65000000e+02 -2.913832732492e+01 -5.050108287352e+01 -3.384226996118e+00 -9.445135487241e+01 -3.381427476647e+00 -9.445932790957e+01 -3.384226996118e+00 -9.445135487241e+01 -6.041731552381e+00 -8.845440907350e+00 -6.997985467209e+00 +1.734891329365e+02 -3.381427476647e+00 -9.445932790957e+01 -6.997985467209e+00 +1.734891329365e+02 -6.049889153709e+00 -8.878429788859e+00
 1.66000000e+02 -2.858106885872e+01 -5.452366674081e+01 -3.385266273592e+00 -9.505111854104e+01 -3.382493459541e+00 -9.505936898665e+01 -3.385266273592e+00 -9.505111854104e+01 -6.043710826432e+00 -9.437657736341e+00 -6.998287611136e+00 +1.724660110296e+02 -3.382493459541e+00 -9.505936898665e+01 -6.998287611137e+00 +1.724660110296e+02 -6.051859748540e+00 -9.470955915925e+00
 1.67000000e+02 -2.803212052244e+01 -5.813683696369e+01 -3.386397682786e+00 -9.565088698973e+01 -3.383652893243e+00 -9.565941536516e+01 -3.386397682786e+00 -9.565088698973e+01 -6.046009276381e+00 -1.003072056821e+01 -6.998399787413e+00 +1.714417961869e+02 -3.383652893243e+00 -9.565941536516e+01 -6.998399787413e+00 +1.714417961869e+02 -6.054149160971e+00 -1.006433806887e+01
 1.68000000e+02 -2.749625978433e+01 -6.139601605054e+01 -3.387621251436e+00 -9.625064864117e+01 -3.384905857313e+00 -9.625945536209e+01 -3.387621251436e+00 -9.625064864117e+01 -6.048639483944e+00 -1.062473075208e+01 -6.998332810875e+00 +1.704164302896e+02 -3.384905857313e+00 -9.625945536209e+01 -6.998332810875e+00 +1.704164302896e+02 -6.056770040740e+00 -1.065867827728e+01
 1.69000000e+02 -2.697636793849e+01 -6.435054848156e+01 -3.388936968587e+00 -9.685039192712e+01 -3.386252396720e+00 -9.685947728568e+01 -3.388936968588e+00 -9.685039192712e+01 -6.051615385006e+00 -1.121978871823e+01 -6.998098612491e+00 +1.693898543717e+02 -3.386252396719e+00 -9.685947728568e+01 -6.998098612491e+00 +1.693898543717e+02 -6.059736401192e+00 -1.125407768839e+01
 1.70000000e+02 -2.647400458069e+01 -6.704327934570e+01 -3.390344784474e+00 -9.745010529535e+01 -3.387692522047e+00 -9.745946943932e+01 -3.390344784474e+00 -9.745010529535e+01 -6.054952396237e+00 -1.181599354104e+01 -6.997710372091e+00 +1.683620088358e+02 -3.387692522047e+00 -9.745946943932e+01 -6.997710372091e+00 +1.683620088358e+02 -6.063063747206e+00 -1.185063613160e+01
 1.71000000e+02 -2.598983190716e+01 -6.951086984866e+01 -3.391844610401e+00 -9.804977721699e+01 -3.389226209743e+00 -9.805942012511e+01 -3.391844610401e+00 -9.804977721699e+01 -6.058667555559e+00 -1.241344239439e+01 -6.997182667663e+00 +1.673328337477e+02 -3.389226209743e+00 -9.805942012511e+01 -6.997182667663e+00 +1.673328337476e+02 -6.066769217148e+00 -1.244845157512e+01
 1.72000000e+02 -2.552391773515e+01 -7.178443742976e+01 -3.393436318646e+00 -9.864939619408e+01 -3.390853402386e+00 -9.865931764719e+01 -3.393436318647e+00 -9.864939619408e+01 -6.062779677672e+00 -1.301222987585e+01 -6.996531643142e+00 +1.663022692302e+02 -3.390853402386e+00 -9.865931764719e+01 -6.996531643141e+00 +1.663022692302e+02 -6.070871740123e+00 -1.304761945120e+01
