 frequency       v(inoise_spectrum) v(onoise_spectrum)
 1.20000000e+11  1.03431812e-01  1.03157598e-03 
 1.20080000e+11  1.03040180e-01  1.03158216e-03 
 1.20160000e+11  1.02638216e-01  1.03158854e-03 
 1.20240000e+11  1.02226704e-01  1.03159512e-03 
 1.20320000e+11  1.01806395e-01  1.03160191e-03 
 1.20400000e+11  1.01378009e-01  1.03160890e-03 
 1.20480000e+11  1.00942229e-01  1.03161609e-03 
 1.20560000e+11  1.00499711e-01  1.03162348e-03 
 1.20640000e+11  1.00051075e-01  1.03163107e-03 
 1.20720000e+11  9.95969126e-02  1.03163887e-03 
 1.20800000e+11  9.91377826e-02  1.03164687e-03 
 1.20880000e+11  9.86742156e-02  1.03165506e-03 
 1.20960000e+11  9.82067127e-02  1.03166346e-03 
 1.21040000e+11  9.77357473e-02  1.03167206e-03 
 1.21120000e+11  9.72617653e-02  1.03168086e-03 
 1.21200000e+11  9.67851869e-02  1.03168986e-03 
 1.21280000e+11  9.63064069e-02  1.03169906e-03 
 1.21360000e+11  9.58257959e-02  1.03170846e-03 
 1.21440000e+11  9.53437016e-02  1.03171806e-03 
 1.21520000e+11  9.48604494e-02  1.03172786e-03 
 1.21600000e+11  9.43763434e-02  1.03173785e-03 
 1.21680000e+11  9.38916677e-02  1.03174805e-03 
 1.21760000e+11  9.34066870e-02  1.03175844e-03 
 1.21840000e+11  9.29216478e-02  1.03176903e-03 
 1.21920000e+11  9.24367792e-02  1.03177982e-03 
 1.22000000e+11  9.19522936e-02  1.03179081e-03 
 1.22080000e+11  9.14683880e-02  1.03180199e-03 
 1.22160000e+11  9.09852445e-02  1.03181337e-03 
 1.22240000e+11  9.05030311e-02  1.03182494e-03 
 1.22320000e+11  9.00219025e-02  1.03183672e-03 
 1.22400000e+11  8.95420011e-02  1.03184868e-03 
 1.22480000e+11  8.90634575e-02  1.03186085e-03 
 1.22560000e+11  8.85863910e-02  1.03187321e-03 
 1.22640000e+11  8.81109105e-02  1.03188576e-03 
 1.22720000e+11  8.76371153e-02  1.03189851e-03 
 1.22800000e+11  8.71650951e-02  1.03191145e-03 
 1.22880000e+11  8.66949311e-02  1.03192459e-03 
 1.22960000e+11  8.62266965e-02  1.03193791e-03 
 1.23040000e+11  8.57604566e-02  1.03195144e-03 
 1.23120000e+11  8.52962698e-02  1.03196515e-03 
 1.23200000e+11  8.48341876e-02  1.03197906e-03 
 1.23280000e+11  8.43742553e-02  1.03199316e-03 
 1.23360000e+11  8.39165126e-02  1.03200745e-03 
 1.23440000e+11  8.34609934e-02  1.03202193e-03 
 1.23520000e+11  8.30077266e-02  1.03203661e-03 
 1.23600000e+11  8.25567367e-02  1.03205147e-03 
 1.23680000e+11  8.21080433e-02  1.03206652e-03 
 1.23760000e+11  8.16616621e-02  1.03208177e-03 
 1.23840000e+11  8.12176052e-02  1.03209720e-03 
 1.23920000e+11  8.07758808e-02  1.03211283e-03 
 1.24000000e+11  8.03364942e-02  1.03212864e-03 
 1.24080000e+11  7.98994472e-02  1.03214464e-03 
 1.24160000e+11  7.94647393e-02  1.03216083e-03 
 1.24240000e+11  7.90323670e-02  1.03217721e-03 
 1.24320000e+11  7.86023247e-02  1.03219377e-03 
 1.24400000e+11  7.81746044e-02  1.03221053e-03 
 1.24480000e+11  7.77491962e-02  1.03222747e-03 
 1.24560000e+11  7.73260882e-02  1.03224459e-03 
 1.24640000e+11  7.69052670e-02  1.03226191e-03 
 1.24720000e+11  7.64867176e-02  1.03227941e-03 
 1.24800000e+11  7.60704234e-02  1.03229709e-03 
 1.24880000e+11  7.56563667e-02  1.03231496e-03 
 1.24960000e+11  7.52445285e-02  1.03233302e-03 
 1.25040000e+11  7.48348890e-02  1.03235126e-03 
 1.25120000e+11  7.44274271e-02  1.03236968e-03 
 1.25200000e+11  7.40221211e-02  1.03238829e-03 
 1.25280000e+11  7.36189484e-02  1.03240708e-03 
 1.25360000e+11  7.32178859e-02  1.03242606e-03 
 1.25440000e+11  7.28189097e-02  1.03244522e-03 
 1.25520000e+11  7.24219955e-02  1.03246456e-03 
 1.25600000e+11  7.20271186e-02  1.03248409e-03 
 1.25680000e+11  7.16342537e-02  1.03250380e-03 
 1.25760000e+11  7.12433755e-02  1.03252369e-03 
 1.25840000e+11  7.08544583e-02  1.03254376e-03 
 1.25920000e+11  7.04674759e-02  1.03256402e-03 
 1.26000000e+11  7.00824024e-02  1.03258445e-03 
 1.26080000e+11  6.96992115e-02  1.03260507e-03 
 1.26160000e+11  6.93178770e-02  1.03262587e-03 
 1.26240000e+11  6.89383724e-02  1.03264685e-03 
 1.26320000e+11  6.85606714e-02  1.03266801e-03 
 1.26400000e+11  6.81847478e-02  1.03268934e-03 
 1.26480000e+11  6.78105752e-02  1.03271086e-03 
 1.26560000e+11  6.74381276e-02  1.03273256e-03 
 1.26640000e+11  6.70673789e-02  1.03275444e-03 
 1.26720000e+11  6.66983032e-02  1.03277650e-03 
 1.26800000e+11  6.63308748e-02  1.03279874e-03 
 1.26880000e+11  6.59650682e-02  1.03282116e-03 
 1.26960000e+11  6.56008581e-02  1.03284375e-03 
 1.27040000e+11  6.52382194e-02  1.03286653e-03 
 1.27120000e+11  6.48771272e-02  1.03288948e-03 
 1.27200000e+11  6.45175569e-02  1.03291261e-03 
 1.27280000e+11  6.41594843e-02  1.03293592e-03 
 1.27360000e+11  6.38028852e-02  1.03295941e-03 
 1.27440000e+11  6.34477360e-02  1.03298308e-03 
 1.27520000e+11  6.30940131e-02  1.03300692e-03 
 1.27600000e+11  6.27416936e-02  1.03303095e-03 
 1.27680000e+11  6.23907545e-02  1.03305515e-03 
 1.27760000e+11  6.20411734e-02  1.03307952e-03 
 1.27840000e+11  6.16929281e-02  1.03310408e-03 
 1.27920000e+11  6.13459969e-02  1.03312881e-03 
 1.28000000e+11  6.10003584e-02  1.03315372e-03 
 1.28080000e+11  6.06559913e-02  1.03317881e-03 
 1.28160000e+11  6.03128750e-02  1.03320407e-03 
 1.28240000e+11  5.99709892e-02  1.03322952e-03 
 1.28320000e+11  5.96303137e-02  1.03325513e-03 
 1.28400000e+11  5.92908289e-02  1.03328093e-03 
 1.28480000e+11  5.89525156e-02  1.03330690e-03 
 1.28560000e+11  5.86153548e-02  1.03333306e-03 
 1.28640000e+11  5.82793281e-02  1.03335938e-03 
 1.28720000e+11  5.79444171e-02  1.03338589e-03 
 1.28800000e+11  5.76106042e-02  1.03341257e-03 
 1.28880000e+11  5.72778718e-02  1.03343944e-03 
 1.28960000e+11  5.69462031e-02  1.03346647e-03 
 1.29040000e+11  5.66155811e-02  1.03349369e-03 
 1.29120000e+11  5.62859898e-02  1.03352109e-03 
 1.29200000e+11  5.59574130e-02  1.03354866e-03 
 1.29280000e+11  5.56298353e-02  1.03357641e-03 
 1.29360000e+11  5.53032414e-02  1.03360434e-03 
 1.29440000e+11  5.49776165e-02  1.03363245e-03 
 1.29520000e+11  5.46529461e-02  1.03366074e-03 
 1.29600000e+11  5.43292162e-02  1.03368920e-03 
 1.29680000e+11  5.40064130e-02  1.03371785e-03 
 1.29760000e+11  5.36845232e-02  1.03374667e-03 
 1.29840000e+11  5.33635336e-02  1.03377568e-03 
 1.29920000e+11  5.30434316e-02  1.03380486e-03 
 1.30000000e+11  5.27242050e-02  1.03383423e-03 
 1.30080000e+11  5.24058418e-02  1.03386378e-03 
 1.30160000e+11  5.20883304e-02  1.03389350e-03 
 1.30240000e+11  5.17716594e-02  1.03392341e-03 
 1.30320000e+11  5.14558181e-02  1.03395351e-03 
 1.30400000e+11  5.11407959e-02  1.03398378e-03 
 1.30480000e+11  5.08265824e-02  1.03401424e-03 
 1.30560000e+11  5.05131679e-02  1.03404488e-03 
 1.30640000e+11  5.02005428e-02  1.03407571e-03 
 1.30720000e+11  4.98886978e-02  1.03410672e-03 
 1.30800000e+11  4.95776241e-02  1.03413792e-03 
 1.30880000e+11  4.92673131e-02  1.03416930e-03 
 1.30960000e+11  4.89577565e-02  1.03420087e-03 
 1.31040000e+11  4.86489465e-02  1.03423262e-03 
 1.31120000e+11  4.83408754e-02  1.03426457e-03 
 1.31200000e+11  4.80335360e-02  1.03429670e-03 
 1.31280000e+11  4.77269213e-02  1.03432902e-03 
 1.31360000e+11  4.74210246e-02  1.03436154e-03 
 1.31440000e+11  4.71158396e-02  1.03439424e-03 
 1.31520000e+11  4.68113602e-02  1.03442714e-03 
 1.31600000e+11  4.65075806e-02  1.03446023e-03 
 1.31680000e+11  4.62044955e-02  1.03449352e-03 
 1.31760000e+11  4.59020996e-02  1.03452700e-03 
 1.31840000e+11  4.56003882e-02  1.03456067e-03 
 1.31920000e+11  4.52993565e-02  1.03459455e-03 
 1.32000000e+11  4.49990004e-02  1.03462862e-03 
 1.32080000e+11  4.46993158e-02  1.03466289e-03 
 1.32160000e+11  4.44002990e-02  1.03469736e-03 
 1.32240000e+11  4.41019466e-02  1.03473204e-03 
 1.32320000e+11  4.38042553e-02  1.03476692e-03 
 1.32400000e+11  4.35072223e-02  1.03480201e-03 
 1.32480000e+11  4.32108450e-02  1.03483730e-03 
 1.32560000e+11  4.29151209e-02  1.03487280e-03 
 1.32640000e+11  4.26200480e-02  1.03490851e-03 
 1.32720000e+11  4.23256244e-02  1.03494443e-03 
 1.32800000e+11  4.20318486e-02  1.03498057e-03 
 1.32880000e+11  4.17387192e-02  1.03501692e-03 
 1.32960000e+11  4.14462351e-02  1.03505348e-03 
 1.33040000e+11  4.11543954e-02  1.03509027e-03 
 1.33120000e+11  4.08631997e-02  1.03512728e-03 
 1.33200000e+11  4.05726475e-02  1.03516451e-03 
 1.33280000e+11  4.02827388e-02  1.03520196e-03 
 1.33360000e+11  3.99934736e-02  1.03523964e-03 
 1.33440000e+11  3.97048523e-02  1.03527756e-03 
 1.33520000e+11  3.94168755e-02  1.03531570e-03 
 1.33600000e+11  3.91295441e-02  1.03535408e-03 
 1.33680000e+11  3.88428590e-02  1.03539270e-03 
 1.33760000e+11  3.85568216e-02  1.03543156e-03 
 1.33840000e+11  3.82714333e-02  1.03547066e-03 
 1.33920000e+11  3.79866958e-02  1.03551000e-03 
 1.34000000e+11  3.77026110e-02  1.03554960e-03 
 1.34080000e+11  3.74191810e-02  1.03558944e-03 
 1.34160000e+11  3.71364083e-02  1.03562955e-03 
 1.34240000e+11  3.68542952e-02  1.03566991e-03 
 1.34320000e+11  3.65728445e-02  1.03571053e-03 
 1.34400000e+11  3.62920592e-02  1.03575142e-03 
 1.34480000e+11  3.60119424e-02  1.03579257e-03 
 1.34560000e+11  3.57324975e-02  1.03583401e-03 
 1.34640000e+11  3.54537278e-02  1.03587571e-03 
 1.34720000e+11  3.51756371e-02  1.03591770e-03 
 1.34800000e+11  3.48982293e-02  1.03595998e-03 
 1.34880000e+11  3.46215084e-02  1.03600254e-03 
 1.34960000e+11  3.43454788e-02  1.03604541e-03 
 1.35040000e+11  3.40701447e-02  1.03608857e-03 
 1.35120000e+11  3.37955108e-02  1.03613203e-03 
 1.35200000e+11  3.35215818e-02  1.03617581e-03 
 1.35280000e+11  3.32483627e-02  1.03621990e-03 
 1.35360000e+11  3.29758585e-02  1.03626431e-03 
 1.35440000e+11  3.27040744e-02  1.03630904e-03 
 1.35520000e+11  3.24330160e-02  1.03635411e-03 
 1.35600000e+11  3.21626887e-02  1.03639952e-03 
 1.35680000e+11  3.18930982e-02  1.03644528e-03 
 1.35760000e+11  3.16242504e-02  1.03649138e-03 
 1.35840000e+11  3.13561514e-02  1.03653785e-03 
 1.35920000e+11  3.10888072e-02  1.03658468e-03 
 1.36000000e+11  3.08222241e-02  1.03663188e-03 
 1.36080000e+11  3.05564086e-02  1.03667946e-03 
 1.36160000e+11  3.02913673e-02  1.03672744e-03 
 1.36240000e+11  3.00271068e-02  1.03677581e-03 
 1.36320000e+11  2.97636339e-02  1.03682458e-03 
 1.36400000e+11  2.95009557e-02  1.03687377e-03 
 1.36480000e+11  2.92390792e-02  1.03692339e-03 
 1.36560000e+11  2.89780115e-02  1.03697344e-03 
 1.36640000e+11  2.87177601e-02  1.03702393e-03 
 1.36720000e+11  2.84583323e-02  1.03707487e-03 
 1.36800000e+11  2.81997357e-02  1.03712628e-03 
 1.36880000e+11  2.79419780e-02  1.03717816e-03 
 1.36960000e+11  2.76850669e-02  1.03723053e-03 
 1.37040000e+11  2.74290103e-02  1.03728340e-03 
 1.37120000e+11  2.71738161e-02  1.03733678e-03 
 1.37200000e+11  2.69194925e-02  1.03739069e-03 
 1.37280000e+11  2.66660476e-02  1.03744513e-03 
 1.37360000e+11  2.64134897e-02  1.03750012e-03 
 1.37440000e+11  2.61618271e-02  1.03755567e-03 
 1.37520000e+11  2.59110684e-02  1.03761181e-03 
 1.37600000e+11  2.56612219e-02  1.03766854e-03 
 1.37680000e+11  2.54122965e-02  1.03772589e-03 
 1.37760000e+11  2.51643007e-02  1.03778386e-03 
 1.37840000e+11  2.49172433e-02  1.03784248e-03 
 1.37920000e+11  2.46711333e-02  1.03790176e-03 
 1.38000000e+11  2.44259796e-02  1.03796172e-03 
 1.38080000e+11  2.41817911e-02  1.03802238e-03 
 1.38160000e+11  2.39385770e-02  1.03808377e-03 
 1.38240000e+11  2.36963464e-02  1.03814590e-03 
 1.38320000e+11  2.34551086e-02  1.03820879e-03 
 1.38400000e+11  2.32148728e-02  1.03827247e-03 
 1.38480000e+11  2.29756483e-02  1.03833696e-03 
 1.38560000e+11  2.27374447e-02  1.03840228e-03 
 1.38640000e+11  2.25002713e-02  1.03846846e-03 
 1.38720000e+11  2.22641377e-02  1.03853553e-03 
 1.38800000e+11  2.20290534e-02  1.03860351e-03 
 1.38880000e+11  2.17950281e-02  1.03867243e-03 
 1.38960000e+11  2.15620715e-02  1.03874233e-03 
 1.39040000e+11  2.13301933e-02  1.03881322e-03 
 1.39120000e+11  2.10994032e-02  1.03888515e-03 
 1.39200000e+11  2.08697111e-02  1.03895814e-03 
 1.39280000e+11  2.06411269e-02  1.03903224e-03 
 1.39360000e+11  2.04136604e-02  1.03910747e-03 
 1.39440000e+11  2.01873216e-02  1.03918388e-03 
 1.39520000e+11  1.99621205e-02  1.03926150e-03 
 1.39600000e+11  1.97380671e-02  1.03934038e-03 
 1.39680000e+11  1.95151715e-02  1.03942054e-03 
 1.39760000e+11  1.92934438e-02  1.03950205e-03 
 1.39840000e+11  1.90728940e-02  1.03958494e-03 
 1.39920000e+11  1.88535324e-02  1.03966927e-03 
 1.40000000e+11  1.86353691e-02  1.03975507e-03 
 1.40080000e+11  1.84184144e-02  1.03984241e-03 
 1.40160000e+11  1.82026784e-02  1.03993133e-03 
 1.40240000e+11  1.79881716e-02  1.04002189e-03 
 1.40320000e+11  1.77749041e-02  1.04011415e-03 
 1.40400000e+11  1.75628864e-02  1.04020817e-03 
 1.40480000e+11  1.73521287e-02  1.04030400e-03 
 1.40560000e+11  1.71426415e-02  1.04040172e-03 
 1.40640000e+11  1.69344351e-02  1.04050140e-03 
 1.40720000e+11  1.67275200e-02  1.04060310e-03 
 1.40800000e+11  1.65219067e-02  1.04070689e-03 
 1.40880000e+11  1.63176055e-02  1.04081285e-03 
 1.40960000e+11  1.61146271e-02  1.04092107e-03 
 1.41040000e+11  1.59129819e-02  1.04103162e-03 
 1.41120000e+11  1.57126805e-02  1.04114459e-03 
 1.41200000e+11  1.55137334e-02  1.04126007e-03 
 1.41280000e+11  1.53161512e-02  1.04137815e-03 
 1.41360000e+11  1.51199446e-02  1.04149893e-03 
 1.41440000e+11  1.49251242e-02  1.04162251e-03 
 1.41520000e+11  1.47317005e-02  1.04174899e-03 
 1.41600000e+11  1.45396844e-02  1.04187848e-03 
 1.41680000e+11  1.43490865e-02  1.04201110e-03 
 1.41760000e+11  1.41599176e-02  1.04214696e-03 
 1.41840000e+11  1.39721883e-02  1.04228619e-03 
 1.41920000e+11  1.37859095e-02  1.04242892e-03 
 1.42000000e+11  1.36010920e-02  1.04257526e-03 
 1.42080000e+11  1.34177465e-02  1.04272537e-03 
 1.42160000e+11  1.32358840e-02  1.04287939e-03 
 1.42240000e+11  1.30555153e-02  1.04303746e-03 
 1.42320000e+11  1.28766513e-02  1.04319974e-03 
 1.42400000e+11  1.26993029e-02  1.04336639e-03 
 1.42480000e+11  1.25234812e-02  1.04353757e-03 
 1.42560000e+11  1.23491971e-02  1.04371346e-03 
 1.42640000e+11  1.21764615e-02  1.04389424e-03 
 1.42720000e+11  1.20052857e-02  1.04408009e-03 
 1.42800000e+11  1.18356806e-02  1.04427120e-03 
 1.42880000e+11  1.16676574e-02  1.04446778e-03 
 1.42960000e+11  1.15012272e-02  1.04467002e-03 
 1.43040000e+11  1.13364011e-02  1.04487815e-03 
 1.43120000e+11  1.11731904e-02  1.04509238e-03 
 1.43200000e+11  1.10116063e-02  1.04531295e-03 
 1.43280000e+11  1.08516601e-02  1.04554008e-03 
 1.43360000e+11  1.06933630e-02  1.04577402e-03 
 1.43440000e+11  1.05367263e-02  1.04601502e-03 
 1.43520000e+11  1.03817615e-02  1.04626334e-03 
 1.43600000e+11  1.02284798e-02  1.04651925e-03 
 1.43680000e+11  1.00768927e-02  1.04678302e-03 
 1.43760000e+11  9.92701159e-03  1.04705492e-03 
 1.43840000e+11  9.77884783e-03  1.04733526e-03 
 1.43920000e+11  9.63241289e-03  1.04762432e-03 
 1.44000000e+11  9.48771821e-03  1.04792241e-03 
 1.44080000e+11  9.34477523e-03  1.04822983e-03 
 1.44160000e+11  9.20359541e-03  1.04854690e-03 
 1.44240000e+11  9.06419016e-03  1.04887395e-03 
 1.44320000e+11  8.92657091e-03  1.04921129e-03 
 1.44400000e+11  8.79074904e-03  1.04955925e-03 
 1.44480000e+11  8.65673591e-03  1.04991818e-03 
 1.44560000e+11  8.52454282e-03  1.05028841e-03 
 1.44640000e+11  8.39418102e-03  1.05067028e-03 
 1.44720000e+11  8.26566169e-03  1.05106412e-03 
 1.44800000e+11  8.13899592e-03  1.05147028e-03 
 1.44880000e+11  8.01419471e-03  1.05188909e-03 
 1.44960000e+11  7.89126891e-03  1.05232089e-03 
 1.45040000e+11  7.77022926e-03  1.05276601e-03 
 1.45120000e+11  7.65108633e-03  1.05322477e-03 
 1.45200000e+11  7.53385051e-03  1.05369748e-03 
 1.45280000e+11  7.41853197e-03  1.05418445e-03 
 1.45360000e+11  7.30514064e-03  1.05468596e-03 
 1.45440000e+11  7.19368621e-03  1.05520230e-03 
 1.45520000e+11  7.08417806e-03  1.05573371e-03 
 1.45600000e+11  6.97662522e-03  1.05628043e-03 
 1.45680000e+11  6.87103639e-03  1.05684266e-03 
 1.45760000e+11  6.76741982e-03  1.05742060e-03 
 1.45840000e+11  6.66578336e-03  1.05801438e-03 
 1.45920000e+11  6.56613433e-03  1.05862412e-03 
 1.46000000e+11  6.46847955e-03  1.05924991e-03 
 1.46080000e+11  6.37282523e-03  1.05989176e-03 
 1.46160000e+11  6.27917694e-03  1.06054969e-03 
 1.46240000e+11  6.18753960e-03  1.06122361e-03 
 1.46320000e+11  6.09791737e-03  1.06191342e-03 
 1.46400000e+11  6.01031358e-03  1.06261895e-03 
 1.46480000e+11  5.92473077e-03  1.06333997e-03 
 1.46560000e+11  5.84117051e-03  1.06407617e-03 
 1.46640000e+11  5.75963342e-03  1.06482720e-03 
 1.46720000e+11  5.68011908e-03  1.06559262e-03 
 1.46800000e+11  5.60262598e-03  1.06637193e-03 
 1.46880000e+11  5.52715143e-03  1.06716455e-03 
 1.46960000e+11  5.45369154e-03  1.06796981e-03 
 1.47040000e+11  5.38224115e-03  1.06878699e-03 
 1.47120000e+11  5.31279372e-03  1.06961528e-03 
 1.47200000e+11  5.24534136e-03  1.07045378e-03 
 1.47280000e+11  5.17987472e-03  1.07130154e-03 
 1.47360000e+11  5.11638295e-03  1.07215751e-03 
 1.47440000e+11  5.05485364e-03  1.07302058e-03 
 1.47520000e+11  4.99527284e-03  1.07388959e-03 
 1.47600000e+11  4.93762494e-03  1.07476330e-03 
 1.47680000e+11  4.88189270e-03  1.07564041e-03 
 1.47760000e+11  4.82805720e-03  1.07651957e-03 
 1.47840000e+11  4.77609785e-03  1.07739940e-03 
 1.47920000e+11  4.72599235e-03  1.07827848e-03 
 1.48000000e+11  4.67771669e-03  1.07915536e-03 
 1.48080000e+11  4.63124519e-03  1.08002859e-03 
 1.48160000e+11  4.58655049e-03  1.08089668e-03 
 1.48240000e+11  4.54360358e-03  1.08175817e-03 
 1.48320000e+11  4.50237384e-03  1.08261162e-03 
 1.48400000e+11  4.46282907e-03  1.08345561e-03 
 1.48480000e+11  4.42493557e-03  1.08428873e-03 
 1.48560000e+11  4.38865814e-03  1.08510965e-03 
 1.48640000e+11  4.35396024e-03  1.08591709e-03 
 1.48720000e+11  4.32080397e-03  1.08670983e-03 
 1.48800000e+11  4.28915022e-03  1.08748672e-03 
 1.48880000e+11  4.25895874e-03  1.08824670e-03 
 1.48960000e+11  4.23018821e-03  1.08898880e-03 
 1.49040000e+11  4.20279638e-03  1.08971215e-03 
 1.49120000e+11  4.17674015e-03  1.09041598e-03 
 1.49200000e+11  4.15197569e-03  1.09109960e-03 
 1.49280000e+11  4.12845855e-03  1.09176247e-03 
 1.49360000e+11  4.10614374e-03  1.09240413e-03 
 1.49440000e+11  4.08498591e-03  1.09302424e-03 
 1.49520000e+11  4.06493940e-03  1.09362255e-03 
 1.49600000e+11  4.04595837e-03  1.09419895e-03 
 1.49680000e+11  4.02799695e-03  1.09475341e-03 
 1.49760000e+11  4.01100927e-03  1.09528601e-03 
 1.49840000e+11  3.99494965e-03  1.09579691e-03 
 1.49920000e+11  3.97977264e-03  1.09628638e-03 
 1.50000000e+11  3.96543313e-03  1.09675476e-03 
 1.50080000e+11  3.95188649e-03  1.09720248e-03 
 1.50160000e+11  3.93908857e-03  1.09763004e-03 
 1.50240000e+11  3.92699587e-03  1.09803799e-03 
 1.50320000e+11  3.91556554e-03  1.09842696e-03 
 1.50400000e+11  3.90475554e-03  1.09879762e-03 
 1.50480000e+11  3.89452460e-03  1.09915068e-03 
 1.50560000e+11  3.88483236e-03  1.09948690e-03 
 1.50640000e+11  3.87563940e-03  1.09980705e-03 
 1.50720000e+11  3.86690727e-03  1.10011195e-03 
 1.50800000e+11  3.85859857e-03  1.10040243e-03 
 1.50880000e+11  3.85067692e-03  1.10067932e-03 
 1.50960000e+11  3.84310707e-03  1.10094348e-03 
 1.51040000e+11  3.83585489e-03  1.10119575e-03 
 1.51120000e+11  3.82888736e-03  1.10143698e-03 
 1.51200000e+11  3.82217265e-03  1.10166802e-03 
 1.51280000e+11  3.81568008e-03  1.10188970e-03 
 1.51360000e+11  3.80938017e-03  1.10210285e-03 
 1.51440000e+11  3.80324459e-03  1.10230827e-03 
 1.51520000e+11  3.79724624e-03  1.10250675e-03 
 1.51600000e+11  3.79135916e-03  1.10269906e-03 
 1.51680000e+11  3.78555859e-03  1.10288596e-03 
 1.51760000e+11  3.77982093e-03  1.10306815e-03 
 1.51840000e+11  3.77412377e-03  1.10324636e-03 
 1.51920000e+11  3.76844580e-03  1.10342125e-03 
 1.52000000e+11  3.76276689e-03  1.10359347e-03 
 1.52080000e+11  3.75706801e-03  1.10376364e-03 
 1.52160000e+11  3.75133124e-03  1.10393237e-03 
 1.52240000e+11  3.74553974e-03  1.10410022e-03 
 1.52320000e+11  3.73967774e-03  1.10426774e-03 
 1.52400000e+11  3.73373051e-03  1.10443544e-03 
 1.52480000e+11  3.72768437e-03  1.10460382e-03 
