 frequency       s11_db          s22_db          s12_db          s21_db          s11_deg         s22_deg         s12_deg         s21_deg        
 1.20000000e+11 -6.60475207e-01 -6.60492729e-01 -4.70578310e+01 -4.70578310e+01  1.69721116e+02  1.69667319e+02 -1.11903520e+02 -1.11903520e+02 
 1.20080000e+11 -6.61519276e-01 -6.61543046e-01 -4.70185515e+01 -4.70185515e+01  1.69615164e+02  1.69561176e+02 -1.12061469e+02 -1.12061469e+02 
 1.20160000e+11 -6.62567862e-01 -6.62597907e-01 -4.69790991e+01 -4.69790991e+01  1.69509116e+02  1.69454937e+02 -1.12219757e+02 -1.12219757e+02 
 1.20240000e+11 -6.63621002e-01 -6.63657351e-01 -4.69394728e+01 -4.69394728e+01  1.69402971e+02  1.69348599e+02 -1.12378386e+02 -1.12378386e+02 
 1.20320000e+11 -6.64678735e-01 -6.64721417e-01 -4.68996717e+01 -4.68996717e+01  1.69296727e+02  1.69242163e+02 -1.12537357e+02 -1.12537357e+02 
 1.20400000e+11 -6.65741101e-01 -6.65790142e-01 -4.68596947e+01 -4.68596947e+01  1.69190385e+02  1.69135626e+02 -1.12696673e+02 -1.12696673e+02 
 1.20480000e+11 -6.66808138e-01 -6.66863568e-01 -4.68195409e+01 -4.68195409e+01  1.69083942e+02  1.69028990e+02 -1.12856336e+02 -1.12856336e+02 
 1.20560000e+11 -6.67879888e-01 -6.67941735e-01 -4.67792093e+01 -4.67792093e+01  1.68977400e+02  1.68922252e+02 -1.13016347e+02 -1.13016347e+02 
 1.20640000e+11 -6.68956389e-01 -6.69024682e-01 -4.67386989e+01 -4.67386989e+01  1.68870757e+02  1.68815412e+02 -1.13176708e+02 -1.13176708e+02 
 1.20720000e+11 -6.70037683e-01 -6.70112451e-01 -4.66980087e+01 -4.66980087e+01  1.68764011e+02  1.68708470e+02 -1.13337422e+02 -1.13337422e+02 
 1.20800000e+11 -6.71123811e-01 -6.71205083e-01 -4.66571377e+01 -4.66571377e+01  1.68657163e+02  1.68601424e+02 -1.13498491e+02 -1.13498491e+02 
 1.20880000e+11 -6.72214816e-01 -6.72302621e-01 -4.66160849e+01 -4.66160849e+01  1.68550212e+02  1.68494274e+02 -1.13659916e+02 -1.13659916e+02 
 1.20960000e+11 -6.73310739e-01 -6.73405106e-01 -4.65748492e+01 -4.65748492e+01  1.68443156e+02  1.68387019e+02 -1.13821700e+02 -1.13821700e+02 
 1.21040000e+11 -6.74411623e-01 -6.74512583e-01 -4.65334297e+01 -4.65334297e+01  1.68335995e+02  1.68279658e+02 -1.13983844e+02 -1.13983844e+02 
 1.21120000e+11 -6.75517512e-01 -6.75625094e-01 -4.64918254e+01 -4.64918254e+01  1.68228729e+02  1.68172190e+02 -1.14146351e+02 -1.14146351e+02 
 1.21200000e+11 -6.76628449e-01 -6.76742684e-01 -4.64500351e+01 -4.64500351e+01  1.68121355e+02  1.68064614e+02 -1.14309223e+02 -1.14309223e+02 
 1.21280000e+11 -6.77744479e-01 -6.77865397e-01 -4.64080579e+01 -4.64080579e+01  1.68013875e+02  1.67956931e+02 -1.14472462e+02 -1.14472462e+02 
 1.21360000e+11 -6.78865647e-01 -6.78993278e-01 -4.63658928e+01 -4.63658928e+01  1.67906286e+02  1.67849138e+02 -1.14636070e+02 -1.14636070e+02 
 1.21440000e+11 -6.79991998e-01 -6.80126373e-01 -4.63235386e+01 -4.63235386e+01  1.67798587e+02  1.67741235e+02 -1.14800050e+02 -1.14800050e+02 
 1.21520000e+11 -6.81123579e-01 -6.81264728e-01 -4.62809944e+01 -4.62809944e+01  1.67690779e+02  1.67633221e+02 -1.14964403e+02 -1.14964403e+02 
 1.21600000e+11 -6.82260435e-01 -6.82408391e-01 -4.62382590e+01 -4.62382590e+01  1.67582860e+02  1.67525096e+02 -1.15129132e+02 -1.15129132e+02 
 1.21680000e+11 -6.83402614e-01 -6.83557407e-01 -4.61953315e+01 -4.61953315e+01  1.67474830e+02  1.67416858e+02 -1.15294239e+02 -1.15294239e+02 
 1.21760000e+11 -6.84550164e-01 -6.84711826e-01 -4.61522107e+01 -4.61522107e+01  1.67366687e+02  1.67308507e+02 -1.15459726e+02 -1.15459726e+02 
 1.21840000e+11 -6.85703133e-01 -6.85871696e-01 -4.61088956e+01 -4.61088956e+01  1.67258430e+02  1.67200041e+02 -1.15625595e+02 -1.15625595e+02 
 1.21920000e+11 -6.86861571e-01 -6.87037066e-01 -4.60653850e+01 -4.60653850e+01  1.67150059e+02  1.67091461e+02 -1.15791849e+02 -1.15791849e+02 
 1.22000000e+11 -6.88025525e-01 -6.88207985e-01 -4.60216780e+01 -4.60216780e+01  1.67041573e+02  1.66982764e+02 -1.15958491e+02 -1.15958491e+02 
 1.22080000e+11 -6.89195048e-01 -6.89384505e-01 -4.59777735e+01 -4.59777735e+01  1.66932971e+02  1.66873950e+02 -1.16125521e+02 -1.16125521e+02 
 1.22160000e+11 -6.90370189e-01 -6.90566676e-01 -4.59336702e+01 -4.59336702e+01  1.66824252e+02  1.66765019e+02 -1.16292944e+02 -1.16292944e+02 
 1.22240000e+11 -6.91551000e-01 -6.91754550e-01 -4.58893672e+01 -4.58893672e+01  1.66715416e+02  1.66655968e+02 -1.16460761e+02 -1.16460761e+02 
 1.22320000e+11 -6.92737533e-01 -6.92948178e-01 -4.58448633e+01 -4.58448633e+01  1.66606460e+02  1.66546799e+02 -1.16628974e+02 -1.16628974e+02 
 1.22400000e+11 -6.93929841e-01 -6.94147615e-01 -4.58001575e+01 -4.58001575e+01  1.66497385e+02  1.66437508e+02 -1.16797586e+02 -1.16797586e+02 
 1.22480000e+11 -6.95127977e-01 -6.95352914e-01 -4.57552485e+01 -4.57552485e+01  1.66388190e+02  1.66328096e+02 -1.16966599e+02 -1.16966599e+02 
 1.22560000e+11 -6.96331995e-01 -6.96564128e-01 -4.57101353e+01 -4.57101353e+01  1.66278873e+02  1.66218562e+02 -1.17136017e+02 -1.17136017e+02 
 1.22640000e+11 -6.97541951e-01 -6.97781314e-01 -4.56648168e+01 -4.56648168e+01  1.66169433e+02  1.66108904e+02 -1.17305841e+02 -1.17305841e+02 
 1.22720000e+11 -6.98757898e-01 -6.99004527e-01 -4.56192917e+01 -4.56192917e+01  1.66059870e+02  1.65999122e+02 -1.17476074e+02 -1.17476074e+02 
 1.22800000e+11 -6.99979895e-01 -7.00233823e-01 -4.55735590e+01 -4.55735590e+01  1.65950183e+02  1.65889215e+02 -1.17646718e+02 -1.17646718e+02 
 1.22880000e+11 -7.01207998e-01 -7.01469259e-01 -4.55276176e+01 -4.55276176e+01  1.65840370e+02  1.65779181e+02 -1.17817776e+02 -1.17817776e+02 
 1.22960000e+11 -7.02442263e-01 -7.02710893e-01 -4.54814662e+01 -4.54814662e+01  1.65730431e+02  1.65669020e+02 -1.17989251e+02 -1.17989251e+02 
 1.23040000e+11 -7.03682751e-01 -7.03958785e-01 -4.54351037e+01 -4.54351037e+01  1.65620365e+02  1.65558731e+02 -1.18161145e+02 -1.18161145e+02 
 1.23120000e+11 -7.04929520e-01 -7.05212993e-01 -4.53885290e+01 -4.53885290e+01  1.65510171e+02  1.65448313e+02 -1.18333461e+02 -1.18333461e+02 
 1.23200000e+11 -7.06182630e-01 -7.06473579e-01 -4.53417409e+01 -4.53417409e+01  1.65399847e+02  1.65337764e+02 -1.18506201e+02 -1.18506201e+02 
 1.23280000e+11 -7.07442141e-01 -7.07740601e-01 -4.52947381e+01 -4.52947381e+01  1.65289394e+02  1.65227085e+02 -1.18679369e+02 -1.18679369e+02 
 1.23360000e+11 -7.08708116e-01 -7.09014124e-01 -4.52475196e+01 -4.52475196e+01  1.65178809e+02  1.65116273e+02 -1.18852967e+02 -1.18852967e+02 
 1.23440000e+11 -7.09980617e-01 -7.10294209e-01 -4.52000841e+01 -4.52000841e+01  1.65068091e+02  1.65005328e+02 -1.19026998e+02 -1.19026998e+02 
 1.23520000e+11 -7.11259706e-01 -7.11580919e-01 -4.51524304e+01 -4.51524304e+01  1.64957241e+02  1.64894248e+02 -1.19201464e+02 -1.19201464e+02 
 1.23600000e+11 -7.12545449e-01 -7.12874320e-01 -4.51045573e+01 -4.51045573e+01  1.64846256e+02  1.64783033e+02 -1.19376368e+02 -1.19376368e+02 
 1.23680000e+11 -7.13837910e-01 -7.14174476e-01 -4.50564637e+01 -4.50564637e+01  1.64735135e+02  1.64671682e+02 -1.19551714e+02 -1.19551714e+02 
 1.23760000e+11 -7.15137155e-01 -7.15481454e-01 -4.50081483e+01 -4.50081483e+01  1.64623878e+02  1.64560194e+02 -1.19727504e+02 -1.19727504e+02 
 1.23840000e+11 -7.16443251e-01 -7.16795321e-01 -4.49596098e+01 -4.49596098e+01  1.64512484e+02  1.64448566e+02 -1.19903741e+02 -1.19903741e+02 
 1.23920000e+11 -7.17756265e-01 -7.18116143e-01 -4.49108471e+01 -4.49108471e+01  1.64400951e+02  1.64336799e+02 -1.20080428e+02 -1.20080428e+02 
 1.24000000e+11 -7.19076265e-01 -7.19443992e-01 -4.48618589e+01 -4.48618589e+01  1.64289278e+02  1.64224892e+02 -1.20257568e+02 -1.20257568e+02 
 1.24080000e+11 -7.20403322e-01 -7.20778935e-01 -4.48126440e+01 -4.48126440e+01  1.64177465e+02  1.64112843e+02 -1.20435164e+02 -1.20435164e+02 
 1.24160000e+11 -7.21737506e-01 -7.22121044e-01 -4.47632012e+01 -4.47632012e+01  1.64065510e+02  1.64000650e+02 -1.20613219e+02 -1.20613219e+02 
 1.24240000e+11 -7.23078889e-01 -7.23470391e-01 -4.47135291e+01 -4.47135291e+01  1.63953411e+02  1.63888314e+02 -1.20791736e+02 -1.20791736e+02 
 1.24320000e+11 -7.24427542e-01 -7.24827048e-01 -4.46636265e+01 -4.46636265e+01  1.63841169e+02  1.63775832e+02 -1.20970718e+02 -1.20970718e+02 
 1.24400000e+11 -7.25783539e-01 -7.26191089e-01 -4.46134922e+01 -4.46134922e+01  1.63728781e+02  1.63663204e+02 -1.21150168e+02 -1.21150168e+02 
 1.24480000e+11 -7.27146955e-01 -7.27562589e-01 -4.45631248e+01 -4.45631248e+01  1.63616247e+02  1.63550429e+02 -1.21330090e+02 -1.21330090e+02 
 1.24560000e+11 -7.28517865e-01 -7.28941624e-01 -4.45125231e+01 -4.45125231e+01  1.63503565e+02  1.63437505e+02 -1.21510487e+02 -1.21510487e+02 
 1.24640000e+11 -7.29896345e-01 -7.30328271e-01 -4.44616859e+01 -4.44616859e+01  1.63390734e+02  1.63324431e+02 -1.21691362e+02 -1.21691362e+02 
 1.24720000e+11 -7.31282475e-01 -7.31722607e-01 -4.44106117e+01 -4.44106117e+01  1.63277754e+02  1.63211206e+02 -1.21872718e+02 -1.21872718e+02 
 1.24800000e+11 -7.32676332e-01 -7.33124713e-01 -4.43592994e+01 -4.43592994e+01  1.63164622e+02  1.63097829e+02 -1.22054559e+02 -1.22054559e+02 
 1.24880000e+11 -7.34077995e-01 -7.34534667e-01 -4.43077475e+01 -4.43077475e+01  1.63051338e+02  1.62984298e+02 -1.22236888e+02 -1.22236888e+02 
 1.24960000e+11 -7.35487548e-01 -7.35952551e-01 -4.42559548e+01 -4.42559548e+01  1.62937901e+02  1.62870613e+02 -1.22419708e+02 -1.22419708e+02 
 1.25040000e+11 -7.36905070e-01 -7.37378449e-01 -4.42039200e+01 -4.42039200e+01  1.62824309e+02  1.62756772e+02 -1.22603023e+02 -1.22603023e+02 
 1.25120000e+11 -7.38330647e-01 -7.38812444e-01 -4.41516417e+01 -4.41516417e+01  1.62710560e+02  1.62642774e+02 -1.22786837e+02 -1.22786837e+02 
 1.25200000e+11 -7.39764363e-01 -7.40254620e-01 -4.40991186e+01 -4.40991186e+01  1.62596655e+02  1.62528618e+02 -1.22971152e+02 -1.22971152e+02 
 1.25280000e+11 -7.41206303e-01 -7.41705064e-01 -4.40463493e+01 -4.40463493e+01  1.62482591e+02  1.62414301e+02 -1.23155973e+02 -1.23155973e+02 
 1.25360000e+11 -7.42656554e-01 -7.43163864e-01 -4.39933325e+01 -4.39933325e+01  1.62368367e+02  1.62299824e+02 -1.23341303e+02 -1.23341303e+02 
 1.25440000e+11 -7.44115206e-01 -7.44631109e-01 -4.39400669e+01 -4.39400669e+01  1.62253982e+02  1.62185185e+02 -1.23527146e+02 -1.23527146e+02 
 1.25520000e+11 -7.45582348e-01 -7.46106887e-01 -4.38865510e+01 -4.38865510e+01  1.62139435e+02  1.62070382e+02 -1.23713505e+02 -1.23713505e+02 
 1.25600000e+11 -7.47058071e-01 -7.47591292e-01 -4.38327834e+01 -4.38327834e+01  1.62024724e+02  1.61955415e+02 -1.23900385e+02 -1.23900385e+02 
 1.25680000e+11 -7.48542467e-01 -7.49084415e-01 -4.37787629e+01 -4.37787629e+01  1.61909848e+02  1.61840281e+02 -1.24087788e+02 -1.24087788e+02 
 1.25760000e+11 -7.50035630e-01 -7.50586351e-01 -4.37244879e+01 -4.37244879e+01  1.61794806e+02  1.61724980e+02 -1.24275719e+02 -1.24275719e+02 
 1.25840000e+11 -7.51537656e-01 -7.52097196e-01 -4.36699572e+01 -4.36699572e+01  1.61679596e+02  1.61609510e+02 -1.24464183e+02 -1.24464183e+02 
 1.25920000e+11 -7.53048640e-01 -7.53617046e-01 -4.36151693e+01 -4.36151693e+01  1.61564217e+02  1.61493869e+02 -1.24653182e+02 -1.24653182e+02 
 1.26000000e+11 -7.54568682e-01 -7.55146000e-01 -4.35601227e+01 -4.35601227e+01  1.61448667e+02  1.61378057e+02 -1.24842720e+02 -1.24842720e+02 
 1.26080000e+11 -7.56097881e-01 -7.56684158e-01 -4.35048161e+01 -4.35048161e+01  1.61332946e+02  1.61262072e+02 -1.25032803e+02 -1.25032803e+02 
 1.26160000e+11 -7.57636338e-01 -7.58231621e-01 -4.34492480e+01 -4.34492480e+01  1.61217052e+02  1.61145913e+02 -1.25223433e+02 -1.25223433e+02 
 1.26240000e+11 -7.59184156e-01 -7.59788494e-01 -4.33934170e+01 -4.33934170e+01  1.61100983e+02  1.61029578e+02 -1.25414615e+02 -1.25414615e+02 
 1.26320000e+11 -7.60741439e-01 -7.61354879e-01 -4.33373217e+01 -4.33373217e+01  1.60984738e+02  1.60913065e+02 -1.25606354e+02 -1.25606354e+02 
 1.26400000e+11 -7.62308292e-01 -7.62930885e-01 -4.32809605e+01 -4.32809605e+01  1.60868315e+02  1.60796374e+02 -1.25798653e+02 -1.25798653e+02 
 1.26480000e+11 -7.63884824e-01 -7.64516618e-01 -4.32243320e+01 -4.32243320e+01  1.60751714e+02  1.60679503e+02 -1.25991517e+02 -1.25991517e+02 
 1.26560000e+11 -7.65471144e-01 -7.66112188e-01 -4.31674348e+01 -4.31674348e+01  1.60634932e+02  1.60562450e+02 -1.26184950e+02 -1.26184950e+02 
 1.26640000e+11 -7.67067363e-01 -7.67717708e-01 -4.31102673e+01 -4.31102673e+01  1.60517968e+02  1.60445214e+02 -1.26378957e+02 -1.26378957e+02 
 1.26720000e+11 -7.68673593e-01 -7.69333288e-01 -4.30528281e+01 -4.30528281e+01  1.60400821e+02  1.60327793e+02 -1.26573541e+02 -1.26573541e+02 
 1.26800000e+11 -7.70289949e-01 -7.70959046e-01 -4.29951157e+01 -4.29951157e+01  1.60283488e+02  1.60210186e+02 -1.26768709e+02 -1.26768709e+02 
 1.26880000e+11 -7.71916546e-01 -7.72595097e-01 -4.29371285e+01 -4.29371285e+01  1.60165970e+02  1.60092392e+02 -1.26964463e+02 -1.26964463e+02 
 1.26960000e+11 -7.73553505e-01 -7.74241561e-01 -4.28788651e+01 -4.28788651e+01  1.60048263e+02  1.59974408e+02 -1.27160810e+02 -1.27160810e+02 
 1.27040000e+11 -7.75200943e-01 -7.75898556e-01 -4.28203239e+01 -4.28203239e+01  1.59930367e+02  1.59856233e+02 -1.27357753e+02 -1.27357753e+02 
 1.27120000e+11 -7.76858984e-01 -7.77566207e-01 -4.27615034e+01 -4.27615034e+01  1.59812279e+02  1.59737865e+02 -1.27555298e+02 -1.27555298e+02 
 1.27200000e+11 -7.78527752e-01 -7.79244637e-01 -4.27024020e+01 -4.27024020e+01  1.59693999e+02  1.59619304e+02 -1.27753449e+02 -1.27753449e+02 
 1.27280000e+11 -7.80207371e-01 -7.80933974e-01 -4.26430182e+01 -4.26430182e+01  1.59575525e+02  1.59500547e+02 -1.27952211e+02 -1.27952211e+02 
 1.27360000e+11 -7.81897971e-01 -7.82634344e-01 -4.25833504e+01 -4.25833504e+01  1.59456854e+02  1.59381593e+02 -1.28151589e+02 -1.28151589e+02 
 1.27440000e+11 -7.83599682e-01 -7.84345880e-01 -4.25233971e+01 -4.25233971e+01  1.59337986e+02  1.59262439e+02 -1.28351589e+02 -1.28351589e+02 
 1.27520000e+11 -7.85312635e-01 -7.86068713e-01 -4.24631566e+01 -4.24631566e+01  1.59218918e+02  1.59143085e+02 -1.28552215e+02 -1.28552215e+02 
 1.27600000e+11 -7.87036965e-01 -7.87802979e-01 -4.24026274e+01 -4.24026274e+01  1.59099649e+02  1.59023529e+02 -1.28753473e+02 -1.28753473e+02 
 1.27680000e+11 -7.88772809e-01 -7.89548815e-01 -4.23418079e+01 -4.23418079e+01  1.58980178e+02  1.58903768e+02 -1.28955368e+02 -1.28955368e+02 
 1.27760000e+11 -7.90520306e-01 -7.91306360e-01 -4.22806965e+01 -4.22806965e+01  1.58860502e+02  1.58783802e+02 -1.29157905e+02 -1.29157905e+02 
 1.27840000e+11 -7.92279597e-01 -7.93075756e-01 -4.22192914e+01 -4.22192914e+01  1.58740620e+02  1.58663628e+02 -1.29361089e+02 -1.29361089e+02 
 1.27920000e+11 -7.94050826e-01 -7.94857148e-01 -4.21575912e+01 -4.21575912e+01  1.58620530e+02  1.58543245e+02 -1.29564927e+02 -1.29564927e+02 
 1.28000000e+11 -7.95834138e-01 -7.96650682e-01 -4.20955942e+01 -4.20955942e+01  1.58500231e+02  1.58422651e+02 -1.29769424e+02 -1.29769424e+02 
 1.28080000e+11 -7.97629683e-01 -7.98456506e-01 -4.20332987e+01 -4.20332987e+01  1.58379720e+02  1.58301844e+02 -1.29974585e+02 -1.29974585e+02 
 1.28160000e+11 -7.99437612e-01 -8.00274774e-01 -4.19707030e+01 -4.19707030e+01  1.58258995e+02  1.58180823e+02 -1.30180416e+02 -1.30180416e+02 
 1.28240000e+11 -8.01258078e-01 -8.02105638e-01 -4.19078055e+01 -4.19078055e+01  1.58138056e+02  1.58059584e+02 -1.30386924e+02 -1.30386924e+02 
 1.28320000e+11 -8.03091237e-01 -8.03949257e-01 -4.18446045e+01 -4.18446045e+01  1.58016899e+02  1.57938128e+02 -1.30594113e+02 -1.30594113e+02 
 1.28400000e+11 -8.04937249e-01 -8.05805788e-01 -4.17810983e+01 -4.17810983e+01  1.57895524e+02  1.57816450e+02 -1.30801991e+02 -1.30801991e+02 
 1.28480000e+11 -8.06796276e-01 -8.07675396e-01 -4.17172852e+01 -4.17172852e+01  1.57773927e+02  1.57694551e+02 -1.31010562e+02 -1.31010562e+02 
 1.28560000e+11 -8.08668481e-01 -8.09558245e-01 -4.16531635e+01 -4.16531635e+01  1.57652108e+02  1.57572428e+02 -1.31219834e+02 -1.31219834e+02 
 1.28640000e+11 -8.10554034e-01 -8.11454503e-01 -4.15887314e+01 -4.15887314e+01  1.57530065e+02  1.57450078e+02 -1.31429812e+02 -1.31429812e+02 
 1.28720000e+11 -8.12453103e-01 -8.13364341e-01 -4.15239873e+01 -4.15239873e+01  1.57407795e+02  1.57327501e+02 -1.31640503e+02 -1.31640503e+02 
 1.28800000e+11 -8.14365863e-01 -8.15287934e-01 -4.14589293e+01 -4.14589293e+01  1.57285296e+02  1.57204693e+02 -1.31851913e+02 -1.31851913e+02 
 1.28880000e+11 -8.16292490e-01 -8.17225458e-01 -4.13935558e+01 -4.13935558e+01  1.57162566e+02  1.57081654e+02 -1.32064049e+02 -1.32064049e+02 
 1.28960000e+11 -8.18233163e-01 -8.19177094e-01 -4.13278649e+01 -4.13278649e+01  1.57039604e+02  1.56958380e+02 -1.32276918e+02 -1.32276918e+02 
 1.29040000e+11 -8.20188067e-01 -8.21143025e-01 -4.12618548e+01 -4.12618548e+01  1.56916408e+02  1.56834870e+02 -1.32490526e+02 -1.32490526e+02 
 1.29120000e+11 -8.22157386e-01 -8.23123439e-01 -4.11955238e+01 -4.11955238e+01  1.56792974e+02  1.56711122e+02 -1.32704880e+02 -1.32704880e+02 
 1.29200000e+11 -8.24141311e-01 -8.25118525e-01 -4.11288700e+01 -4.11288700e+01  1.56669302e+02  1.56587134e+02 -1.32919988e+02 -1.32919988e+02 
 1.29280000e+11 -8.26140035e-01 -8.27128477e-01 -4.10618917e+01 -4.10618917e+01  1.56545389e+02  1.56462903e+02 -1.33135855e+02 -1.33135855e+02 
 1.29360000e+11 -8.28153753e-01 -8.29153493e-01 -4.09945870e+01 -4.09945870e+01  1.56421233e+02  1.56338427e+02 -1.33352490e+02 -1.33352490e+02 
 1.29440000e+11 -8.30182667e-01 -8.31193773e-01 -4.09269540e+01 -4.09269540e+01  1.56296831e+02  1.56213705e+02 -1.33569899e+02 -1.33569899e+02 
 1.29520000e+11 -8.32226981e-01 -8.33249522e-01 -4.08589909e+01 -4.08589909e+01  1.56172182e+02  1.56088734e+02 -1.33788091e+02 -1.33788091e+02 
 1.29600000e+11 -8.34286901e-01 -8.35320948e-01 -4.07906959e+01 -4.07906959e+01  1.56047284e+02  1.55963511e+02 -1.34007072e+02 -1.34007072e+02 
 1.29680000e+11 -8.36362639e-01 -8.37408264e-01 -4.07220670e+01 -4.07220670e+01  1.55922133e+02  1.55838035e+02 -1.34226850e+02 -1.34226850e+02 
 1.29760000e+11 -8.38454411e-01 -8.39511685e-01 -4.06531023e+01 -4.06531023e+01  1.55796728e+02  1.55712303e+02 -1.34447434e+02 -1.34447434e+02 
 1.29840000e+11 -8.40562436e-01 -8.41631432e-01 -4.05838000e+01 -4.05838000e+01  1.55671067e+02  1.55586313e+02 -1.34668830e+02 -1.34668830e+02 
 1.29920000e+11 -8.42686939e-01 -8.43767729e-01 -4.05141582e+01 -4.05141582e+01  1.55545147e+02  1.55460063e+02 -1.34891046e+02 -1.34891046e+02 
 1.30000000e+11 -8.44828146e-01 -8.45920805e-01 -4.04441748e+01 -4.04441748e+01  1.55418966e+02  1.55333550e+02 -1.35114092e+02 -1.35114092e+02 
 1.30080000e+11 -8.46986290e-01 -8.48090893e-01 -4.03738480e+01 -4.03738480e+01  1.55292521e+02  1.55206772e+02 -1.35337975e+02 -1.35337975e+02 
 1.30160000e+11 -8.49161608e-01 -8.50278230e-01 -4.03031757e+01 -4.03031757e+01  1.55165810e+02  1.55079726e+02 -1.35562704e+02 -1.35562704e+02 
 1.30240000e+11 -8.51354340e-01 -8.52483059e-01 -4.02321561e+01 -4.02321561e+01  1.55038831e+02  1.54952410e+02 -1.35788287e+02 -1.35788287e+02 
 1.30320000e+11 -8.53564734e-01 -8.54705625e-01 -4.01607870e+01 -4.01607870e+01  1.54911581e+02  1.54824821e+02 -1.36014732e+02 -1.36014732e+02 
 1.30400000e+11 -8.55793039e-01 -8.56946181e-01 -4.00890666e+01 -4.00890666e+01  1.54784058e+02  1.54696958e+02 -1.36242049e+02 -1.36242049e+02 
 1.30480000e+11 -8.58039511e-01 -8.59204983e-01 -4.00169928e+01 -4.00169928e+01  1.54656258e+02  1.54568817e+02 -1.36470247e+02 -1.36470247e+02 
 1.30560000e+11 -8.60304410e-01 -8.61482292e-01 -3.99445636e+01 -3.99445636e+01  1.54528181e+02  1.54440396e+02 -1.36699334e+02 -1.36699334e+02 
 1.30640000e+11 -8.62588003e-01 -8.63778374e-01 -3.98717768e+01 -3.98717768e+01  1.54399822e+02  1.54311692e+02 -1.36929320e+02 -1.36929320e+02 
 1.30720000e+11 -8.64890560e-01 -8.66093503e-01 -3.97986306e+01 -3.97986306e+01  1.54271180e+02  1.54182703e+02 -1.37160215e+02 -1.37160215e+02 
 1.30800000e+11 -8.67212357e-01 -8.68427954e-01 -3.97251227e+01 -3.97251227e+01  1.54142251e+02  1.54053425e+02 -1.37392027e+02 -1.37392027e+02 
