 frequency       s11_db          s22_db          s12_db          s21_db          s11_deg         s22_deg         s12_deg         s21_deg        
 1.20000000e+11 -8.00463944e-01 -7.91830305e-01 -5.45650359e+01 -5.45650359e+01  1.70058081e+02  1.70077631e+02 -1.36486359e+02 -1.36486359e+02 
 1.20080000e+11 -8.00559067e-01 -7.91899801e-01 -5.44665978e+01 -5.44665978e+01  1.69961743e+02  1.69981050e+02 -1.35988239e+02 -1.35988239e+02 
 1.20160000e+11 -8.00656329e-01 -7.91971547e-01 -5.43674530e+01 -5.43674530e+01  1.69865309e+02  1.69884371e+02 -1.35503204e+02 -1.35503204e+02 
 1.20240000e+11 -8.00755750e-01 -7.92045567e-01 -5.42676561e+01 -5.42676561e+01  1.69768777e+02  1.69787595e+02 -1.35031124e+02 -1.35031124e+02 
 1.20320000e+11 -8.00857350e-01 -7.92121882e-01 -5.41672596e+01 -5.41672596e+01  1.69672147e+02  1.69690719e+02 -1.34571857e+02 -1.34571857e+02 
 1.20400000e+11 -8.00961151e-01 -7.92200514e-01 -5.40663136e+01 -5.40663136e+01  1.69575418e+02  1.69593744e+02 -1.34125255e+02 -1.34125255e+02 
 1.20480000e+11 -8.01067173e-01 -7.92281486e-01 -5.39648661e+01 -5.39648661e+01  1.69478590e+02  1.69496668e+02 -1.33691162e+02 -1.33691162e+02 
 1.20560000e+11 -8.01175437e-01 -7.92364820e-01 -5.38629629e+01 -5.38629629e+01  1.69381661e+02  1.69399491e+02 -1.33269414e+02 -1.33269414e+02 
 1.20640000e+11 -8.01285964e-01 -7.92450540e-01 -5.37606478e+01 -5.37606478e+01  1.69284630e+02  1.69302212e+02 -1.32859846e+02 -1.32859846e+02 
 1.20720000e+11 -8.01398775e-01 -7.92538669e-01 -5.36579622e+01 -5.36579622e+01  1.69187498e+02  1.69204830e+02 -1.32462284e+02 -1.32462284e+02 
 1.20800000e+11 -8.01513893e-01 -7.92629230e-01 -5.35549459e+01 -5.35549459e+01  1.69090263e+02  1.69107345e+02 -1.32076551e+02 -1.32076551e+02 
 1.20880000e+11 -8.01631340e-01 -7.92722246e-01 -5.34516364e+01 -5.34516364e+01  1.68992925e+02  1.69009755e+02 -1.31702470e+02 -1.31702470e+02 
 1.20960000e+11 -8.01751137e-01 -7.92817743e-01 -5.33480694e+01 -5.33480694e+01  1.68895482e+02  1.68912061e+02 -1.31339857e+02 -1.31339857e+02 
 1.21040000e+11 -8.01873307e-01 -7.92915744e-01 -5.32442789e+01 -5.32442789e+01  1.68797934e+02  1.68814260e+02 -1.30988529e+02 -1.30988529e+02 
 1.21120000e+11 -8.01997873e-01 -7.93016273e-01 -5.31402966e+01 -5.31402966e+01  1.68700280e+02  1.68716352e+02 -1.30648300e+02 -1.30648300e+02 
 1.21200000e+11 -8.02124858e-01 -7.93119356e-01 -5.30361531e+01 -5.30361531e+01  1.68602519e+02  1.68618337e+02 -1.30318984e+02 -1.30318984e+02 
 1.21280000e+11 -8.02254285e-01 -7.93225018e-01 -5.29318767e+01 -5.29318767e+01  1.68504651e+02  1.68520214e+02 -1.30000395e+02 -1.30000395e+02 
 1.21360000e+11 -8.02386177e-01 -7.93333284e-01 -5.28274945e+01 -5.28274945e+01  1.68406675e+02  1.68421982e+02 -1.29692346e+02 -1.29692346e+02 
 1.21440000e+11 -8.02520559e-01 -7.93444180e-01 -5.27230319e+01 -5.27230319e+01  1.68308589e+02  1.68323639e+02 -1.29394650e+02 -1.29394650e+02 
 1.21520000e+11 -8.02657455e-01 -7.93557732e-01 -5.26185127e+01 -5.26185127e+01  1.68210393e+02  1.68225186e+02 -1.29107123e+02 -1.29107123e+02 
 1.21600000e+11 -8.02796889e-01 -7.93673966e-01 -5.25139593e+01 -5.25139593e+01  1.68112086e+02  1.68126621e+02 -1.28829578e+02 -1.28829578e+02 
 1.21680000e+11 -8.02938885e-01 -7.93792909e-01 -5.24093927e+01 -5.24093927e+01  1.68013668e+02  1.68027943e+02 -1.28561833e+02 -1.28561833e+02 
 1.21760000e+11 -8.03083469e-01 -7.93914589e-01 -5.23048328e+01 -5.23048328e+01  1.67915137e+02  1.67929152e+02 -1.28303707e+02 -1.28303707e+02 
 1.21840000e+11 -8.03230666e-01 -7.94039031e-01 -5.22002979e+01 -5.22002979e+01  1.67816493e+02  1.67830247e+02 -1.28055019e+02 -1.28055019e+02 
 1.21920000e+11 -8.03380501e-01 -7.94166265e-01 -5.20958051e+01 -5.20958051e+01  1.67717734e+02  1.67731227e+02 -1.27815591e+02 -1.27815591e+02 
 1.22000000e+11 -8.03533001e-01 -7.94296317e-01 -5.19913706e+01 -5.19913706e+01  1.67618860e+02  1.67632090e+02 -1.27585249e+02 -1.27585249e+02 
 1.22080000e+11 -8.03688192e-01 -7.94429217e-01 -5.18870093e+01 -5.18870093e+01  1.67519870e+02  1.67532837e+02 -1.27363817e+02 -1.27363817e+02 
 1.22160000e+11 -8.03846099e-01 -7.94564992e-01 -5.17827351e+01 -5.17827351e+01  1.67420764e+02  1.67433466e+02 -1.27151125e+02 -1.27151125e+02 
 1.22240000e+11 -8.04006751e-01 -7.94703673e-01 -5.16785608e+01 -5.16785608e+01  1.67321539e+02  1.67333976e+02 -1.26947006e+02 -1.26947006e+02 
 1.22320000e+11 -8.04170174e-01 -7.94845288e-01 -5.15744983e+01 -5.15744983e+01  1.67222195e+02  1.67234367e+02 -1.26751292e+02 -1.26751292e+02 
 1.22400000e+11 -8.04336396e-01 -7.94989868e-01 -5.14705586e+01 -5.14705586e+01  1.67122732e+02  1.67134637e+02 -1.26563822e+02 -1.26563822e+02 
 1.22480000e+11 -8.04505444e-01 -7.95137441e-01 -5.13667518e+01 -5.13667518e+01  1.67023148e+02  1.67034785e+02 -1.26384435e+02 -1.26384435e+02 
 1.22560000e+11 -8.04677348e-01 -7.95288040e-01 -5.12630872e+01 -5.12630872e+01  1.66923443e+02  1.66934811e+02 -1.26212973e+02 -1.26212973e+02 
 1.22640000e+11 -8.04852135e-01 -7.95441695e-01 -5.11595732e+01 -5.11595732e+01  1.66823615e+02  1.66834714e+02 -1.26049284e+02 -1.26049284e+02 
 1.22720000e+11 -8.05029835e-01 -7.95598437e-01 -5.10562177e+01 -5.10562177e+01  1.66723664e+02  1.66734492e+02 -1.25893214e+02 -1.25893214e+02 
 1.22800000e+11 -8.05210477e-01 -7.95758298e-01 -5.09530277e+01 -5.09530277e+01  1.66623588e+02  1.66634145e+02 -1.25744616e+02 -1.25744616e+02 
 1.22880000e+11 -8.05394090e-01 -7.95921310e-01 -5.08500094e+01 -5.08500094e+01  1.66523387e+02  1.66533672e+02 -1.25603345e+02 -1.25603345e+02 
 1.22960000e+11 -8.05580706e-01 -7.96087505e-01 -5.07471687e+01 -5.07471687e+01  1.66423060e+02  1.66433072e+02 -1.25469257e+02 -1.25469257e+02 
 1.23040000e+11 -8.05770355e-01 -7.96256918e-01 -5.06445107e+01 -5.06445107e+01  1.66322605e+02  1.66332343e+02 -1.25342215e+02 -1.25342215e+02 
 1.23120000e+11 -8.05963066e-01 -7.96429581e-01 -5.05420399e+01 -5.05420399e+01  1.66222022e+02  1.66231486e+02 -1.25222081e+02 -1.25222081e+02 
 1.23200000e+11 -8.06158873e-01 -7.96605528e-01 -5.04397603e+01 -5.04397603e+01  1.66121310e+02  1.66130498e+02 -1.25108722e+02 -1.25108722e+02 
 1.23280000e+11 -8.06357806e-01 -7.96784793e-01 -5.03376754e+01 -5.03376754e+01  1.66020467e+02  1.66029379e+02 -1.25002007e+02 -1.25002007e+02 
 1.23360000e+11 -8.06559899e-01 -7.96967412e-01 -5.02357882e+01 -5.02357882e+01  1.65919493e+02  1.65928127e+02 -1.24901810e+02 -1.24901810e+02 
 1.23440000e+11 -8.06765183e-01 -7.97153419e-01 -5.01341012e+01 -5.01341012e+01  1.65818386e+02  1.65826742e+02 -1.24808005e+02 -1.24808005e+02 
 1.23520000e+11 -8.06973691e-01 -7.97342851e-01 -5.00326167e+01 -5.00326167e+01  1.65717147e+02  1.65725223e+02 -1.24720471e+02 -1.24720471e+02 
 1.23600000e+11 -8.07185459e-01 -7.97535743e-01 -4.99313361e+01 -4.99313361e+01  1.65615772e+02  1.65623569e+02 -1.24639088e+02 -1.24639088e+02 
 1.23680000e+11 -8.07400518e-01 -7.97732133e-01 -4.98302610e+01 -4.98302610e+01  1.65514262e+02  1.65521778e+02 -1.24563741e+02 -1.24563741e+02 
 1.23760000e+11 -8.07618904e-01 -7.97932058e-01 -4.97293922e+01 -4.97293922e+01  1.65412616e+02  1.65419849e+02 -1.24494317e+02 -1.24494317e+02 
 1.23840000e+11 -8.07840653e-01 -7.98135556e-01 -4.96287304e+01 -4.96287304e+01  1.65310832e+02  1.65317782e+02 -1.24430704e+02 -1.24430704e+02 
 1.23920000e+11 -8.08065799e-01 -7.98342664e-01 -4.95282757e+01 -4.95282757e+01  1.65208909e+02  1.65215575e+02 -1.24372795e+02 -1.24372795e+02 
 1.24000000e+11 -8.08294378e-01 -7.98553422e-01 -4.94280282e+01 -4.94280282e+01  1.65106846e+02  1.65113228e+02 -1.24320484e+02 -1.24320484e+02 
 1.24080000e+11 -8.08526427e-01 -7.98767870e-01 -4.93279877e+01 -4.93279877e+01  1.65004642e+02  1.65010738e+02 -1.24273668e+02 -1.24273668e+02 
 1.24160000e+11 -8.08761984e-01 -7.98986047e-01 -4.92281534e+01 -4.92281534e+01  1.64902296e+02  1.64908105e+02 -1.24232248e+02 -1.24232248e+02 
 1.24240000e+11 -8.09001085e-01 -7.99207993e-01 -4.91285245e+01 -4.91285245e+01  1.64799806e+02  1.64805328e+02 -1.24196125e+02 -1.24196125e+02 
 1.24320000e+11 -8.09243768e-01 -7.99433751e-01 -4.90291000e+01 -4.90291000e+01  1.64697173e+02  1.64702406e+02 -1.24165205e+02 -1.24165205e+02 
 1.24400000e+11 -8.09490074e-01 -7.99663362e-01 -4.89298785e+01 -4.89298785e+01  1.64594393e+02  1.64599337e+02 -1.24139393e+02 -1.24139393e+02 
 1.24480000e+11 -8.09740040e-01 -7.99896867e-01 -4.88308586e+01 -4.88308586e+01  1.64491467e+02  1.64496121e+02 -1.24118600e+02 -1.24118600e+02 
 1.24560000e+11 -8.09993707e-01 -8.00134311e-01 -4.87320384e+01 -4.87320384e+01  1.64388393e+02  1.64392756e+02 -1.24102737e+02 -1.24102737e+02 
 1.24640000e+11 -8.10251115e-01 -8.00375737e-01 -4.86334161e+01 -4.86334161e+01  1.64285170e+02  1.64289240e+02 -1.24091717e+02 -1.24091717e+02 
 1.24720000e+11 -8.10512305e-01 -8.00621189e-01 -4.85349895e+01 -4.85349895e+01  1.64181797e+02  1.64185574e+02 -1.24085458e+02 -1.24085458e+02 
 1.24800000e+11 -8.10777318e-01 -8.00870712e-01 -4.84367565e+01 -4.84367565e+01  1.64078272e+02  1.64081755e+02 -1.24083876e+02 -1.24083876e+02 
 1.24880000e+11 -8.11046198e-01 -8.01124352e-01 -4.83387145e+01 -4.83387145e+01  1.63974594e+02  1.63977782e+02 -1.24086892e+02 -1.24086892e+02 
 1.24960000e+11 -8.11318987e-01 -8.01382155e-01 -4.82408611e+01 -4.82408611e+01  1.63870763e+02  1.63873654e+02 -1.24094429e+02 -1.24094429e+02 
 1.25040000e+11 -8.11595729e-01 -8.01644168e-01 -4.81431935e+01 -4.81431935e+01  1.63766776e+02  1.63769370e+02 -1.24106411e+02 -1.24106411e+02 
 1.25120000e+11 -8.11876467e-01 -8.01910439e-01 -4.80457089e+01 -4.80457089e+01  1.63662633e+02  1.63664928e+02 -1.24122763e+02 -1.24122763e+02 
 1.25200000e+11 -8.12161248e-01 -8.02181016e-01 -4.79484043e+01 -4.79484043e+01  1.63558331e+02  1.63560328e+02 -1.24143414e+02 -1.24143414e+02 
 1.25280000e+11 -8.12450116e-01 -8.02455949e-01 -4.78512767e+01 -4.78512767e+01  1.63453871e+02  1.63455568e+02 -1.24168294e+02 -1.24168294e+02 
 1.25360000e+11 -8.12743117e-01 -8.02735287e-01 -4.77543229e+01 -4.77543229e+01  1.63349251e+02  1.63350646e+02 -1.24197335e+02 -1.24197335e+02 
 1.25440000e+11 -8.13040300e-01 -8.03019082e-01 -4.76575397e+01 -4.76575397e+01  1.63244468e+02  1.63245561e+02 -1.24230469e+02 -1.24230469e+02 
 1.25520000e+11 -8.13341712e-01 -8.03307384e-01 -4.75609236e+01 -4.75609236e+01  1.63139523e+02  1.63140313e+02 -1.24267632e+02 -1.24267632e+02 
 1.25600000e+11 -8.13647402e-01 -8.03600247e-01 -4.74644712e+01 -4.74644712e+01  1.63034413e+02  1.63034899e+02 -1.24308762e+02 -1.24308762e+02 
 1.25680000e+11 -8.13957418e-01 -8.03897723e-01 -4.73681791e+01 -4.73681791e+01  1.62929138e+02  1.62929319e+02 -1.24353795e+02 -1.24353795e+02 
 1.25760000e+11 -8.14271811e-01 -8.04199866e-01 -4.72720435e+01 -4.72720435e+01  1.62823695e+02  1.62823570e+02 -1.24402673e+02 -1.24402673e+02 
 1.25840000e+11 -8.14590633e-01 -8.04506732e-01 -4.71760609e+01 -4.71760609e+01  1.62718084e+02  1.62717652e+02 -1.24455338e+02 -1.24455338e+02 
 1.25920000e+11 -8.14913935e-01 -8.04818377e-01 -4.70802275e+01 -4.70802275e+01  1.62612303e+02  1.62611563e+02 -1.24511731e+02 -1.24511731e+02 
 1.26000000e+11 -8.15241769e-01 -8.05134856e-01 -4.69845394e+01 -4.69845394e+01  1.62506350e+02  1.62505301e+02 -1.24571798e+02 -1.24571798e+02 
 1.26080000e+11 -8.15574189e-01 -8.05456228e-01 -4.68889929e+01 -4.68889929e+01  1.62400225e+02  1.62398866e+02 -1.24635485e+02 -1.24635485e+02 
 1.26160000e+11 -8.15911251e-01 -8.05782552e-01 -4.67935840e+01 -4.67935840e+01  1.62293926e+02  1.62292255e+02 -1.24702739e+02 -1.24702739e+02 
 1.26240000e+11 -8.16253008e-01 -8.06113886e-01 -4.66983088e+01 -4.66983088e+01  1.62187451e+02  1.62185468e+02 -1.24773509e+02 -1.24773509e+02 
 1.26320000e+11 -8.16599518e-01 -8.06450292e-01 -4.66031633e+01 -4.66031633e+01  1.62080799e+02  1.62078503e+02 -1.24847745e+02 -1.24847745e+02 
 1.26400000e+11 -8.16950837e-01 -8.06791831e-01 -4.65081434e+01 -4.65081434e+01  1.61973968e+02  1.61971358e+02 -1.24925399e+02 -1.24925399e+02 
 1.26480000e+11 -8.17307024e-01 -8.07138565e-01 -4.64132451e+01 -4.64132451e+01  1.61866957e+02  1.61864031e+02 -1.25006423e+02 -1.25006423e+02 
 1.26560000e+11 -8.17668138e-01 -8.07490558e-01 -4.63184643e+01 -4.63184643e+01  1.61759764e+02  1.61756522e+02 -1.25090771e+02 -1.25090771e+02 
 1.26640000e+11 -8.18034239e-01 -8.07847876e-01 -4.62237967e+01 -4.62237967e+01  1.61652388e+02  1.61648829e+02 -1.25178399e+02 -1.25178399e+02 
 1.26720000e+11 -8.18405389e-01 -8.08210583e-01 -4.61292383e+01 -4.61292383e+01  1.61544827e+02  1.61540950e+02 -1.25269262e+02 -1.25269262e+02 
 1.26800000e+11 -8.18781649e-01 -8.08578747e-01 -4.60347849e+01 -4.60347849e+01  1.61437080e+02  1.61432883e+02 -1.25363318e+02 -1.25363318e+02 
 1.26880000e+11 -8.19163083e-01 -8.08952436e-01 -4.59404321e+01 -4.59404321e+01  1.61329145e+02  1.61324628e+02 -1.25460525e+02 -1.25460525e+02 
 1.26960000e+11 -8.19549757e-01 -8.09331719e-01 -4.58461758e+01 -4.58461758e+01  1.61221020e+02  1.61216181e+02 -1.25560844e+02 -1.25560844e+02 
 1.27040000e+11 -8.19941734e-01 -8.09716667e-01 -4.57520117e+01 -4.57520117e+01  1.61112704e+02  1.61107543e+02 -1.25664234e+02 -1.25664234e+02 
 1.27120000e+11 -8.20339083e-01 -8.10107351e-01 -4.56579355e+01 -4.56579355e+01  1.61004195e+02  1.60998710e+02 -1.25770658e+02 -1.25770658e+02 
 1.27200000e+11 -8.20741870e-01 -8.10503845e-01 -4.55639429e+01 -4.55639429e+01  1.60895491e+02  1.60889682e+02 -1.25880078e+02 -1.25880078e+02 
 1.27280000e+11 -8.21150167e-01 -8.10906222e-01 -4.54700296e+01 -4.54700296e+01  1.60786591e+02  1.60780457e+02 -1.25992458e+02 -1.25992458e+02 
 1.27360000e+11 -8.21564041e-01 -8.11314559e-01 -4.53761912e+01 -4.53761912e+01  1.60677494e+02  1.60671032e+02 -1.26107763e+02 -1.26107763e+02 
 1.27440000e+11 -8.21983567e-01 -8.11728932e-01 -4.52824234e+01 -4.52824234e+01  1.60568196e+02  1.60561407e+02 -1.26225958e+02 -1.26225958e+02 
 1.27520000e+11 -8.22408816e-01 -8.12149420e-01 -4.51887219e+01 -4.51887219e+01  1.60458697e+02  1.60451579e+02 -1.26347010e+02 -1.26347010e+02 
 1.27600000e+11 -8.22839862e-01 -8.12576102e-01 -4.50950822e+01 -4.50950822e+01  1.60348995e+02  1.60341547e+02 -1.26470886e+02 -1.26470886e+02 
 1.27680000e+11 -8.23276783e-01 -8.13009060e-01 -4.50015001e+01 -4.50015001e+01  1.60239087e+02  1.60231309e+02 -1.26597554e+02 -1.26597554e+02 
 1.27760000e+11 -8.23719654e-01 -8.13448376e-01 -4.49079710e+01 -4.49079710e+01  1.60128973e+02  1.60120862e+02 -1.26726984e+02 -1.26726984e+02 
 1.27840000e+11 -8.24168555e-01 -8.13894134e-01 -4.48144907e+01 -4.48144907e+01  1.60018650e+02  1.60010207e+02 -1.26859145e+02 -1.26859145e+02 
 1.27920000e+11 -8.24623565e-01 -8.14346421e-01 -4.47210548e+01 -4.47210548e+01  1.59908117e+02  1.59899339e+02 -1.26994009e+02 -1.26994009e+02 
 1.28000000e+11 -8.25084766e-01 -8.14805323e-01 -4.46276588e+01 -4.46276588e+01  1.59797371e+02  1.59788258e+02 -1.27131546e+02 -1.27131546e+02 
 1.28080000e+11 -8.25552241e-01 -8.15270930e-01 -4.45342983e+01 -4.45342983e+01  1.59686411e+02  1.59676962e+02 -1.27271729e+02 -1.27271729e+02 
 1.28160000e+11 -8.26026076e-01 -8.15743332e-01 -4.44409689e+01 -4.44409689e+01  1.59575234e+02  1.59565448e+02 -1.27414532e+02 -1.27414532e+02 
 1.28240000e+11 -8.26506355e-01 -8.16222622e-01 -4.43476663e+01 -4.43476663e+01  1.59463839e+02  1.59453715e+02 -1.27559927e+02 -1.27559927e+02 
 1.28320000e+11 -8.26993167e-01 -8.16708894e-01 -4.42543860e+01 -4.42543860e+01  1.59352225e+02  1.59341761e+02 -1.27707890e+02 -1.27707890e+02 
 1.28400000e+11 -8.27486601e-01 -8.17202243e-01 -4.41611236e+01 -4.41611236e+01  1.59240388e+02  1.59229583e+02 -1.27858395e+02 -1.27858395e+02 
 1.28480000e+11 -8.27986750e-01 -8.17702768e-01 -4.40678747e+01 -4.40678747e+01  1.59128326e+02  1.59117181e+02 -1.28011420e+02 -1.28011420e+02 
 1.28560000e+11 -8.28493706e-01 -8.18210567e-01 -4.39746348e+01 -4.39746348e+01  1.59016039e+02  1.59004551e+02 -1.28166939e+02 -1.28166939e+02 
 1.28640000e+11 -8.29007564e-01 -8.18725744e-01 -4.38813997e+01 -4.38813997e+01  1.58903523e+02  1.58891691e+02 -1.28324931e+02 -1.28324931e+02 
 1.28720000e+11 -8.29528422e-01 -8.19248400e-01 -4.37881647e+01 -4.37881647e+01  1.58790777e+02  1.58778600e+02 -1.28485373e+02 -1.28485373e+02 
 1.28800000e+11 -8.30056377e-01 -8.19778642e-01 -4.36949257e+01 -4.36949257e+01  1.58677798e+02  1.58665276e+02 -1.28648244e+02 -1.28648244e+02 
 1.28880000e+11 -8.30591530e-01 -8.20316577e-01 -4.36016780e+01 -4.36016780e+01  1.58564585e+02  1.58551716e+02 -1.28813524e+02 -1.28813524e+02 
 1.28960000e+11 -8.31133985e-01 -8.20862315e-01 -4.35084174e+01 -4.35084174e+01  1.58451134e+02  1.58437918e+02 -1.28981191e+02 -1.28981191e+02 
 1.29040000e+11 -8.31683847e-01 -8.21415968e-01 -4.34151394e+01 -4.34151394e+01  1.58337445e+02  1.58323879e+02 -1.29151226e+02 -1.29151226e+02 
 1.29120000e+11 -8.32241221e-01 -8.21977650e-01 -4.33218396e+01 -4.33218396e+01  1.58223514e+02  1.58209599e+02 -1.29323611e+02 -1.29323611e+02 
 1.29200000e+11 -8.32806218e-01 -8.22547478e-01 -4.32285137e+01 -4.32285137e+01  1.58109340e+02  1.58095074e+02 -1.29498326e+02 -1.29498326e+02 
 1.29280000e+11 -8.33378949e-01 -8.23125570e-01 -4.31351571e+01 -4.31351571e+01  1.57994920e+02  1.57980301e+02 -1.29675354e+02 -1.29675354e+02 
 1.29360000e+11 -8.33959526e-01 -8.23712047e-01 -4.30417656e+01 -4.30417656e+01  1.57880252e+02  1.57865280e+02 -1.29854677e+02 -1.29854677e+02 
 1.29440000e+11 -8.34548068e-01 -8.24307034e-01 -4.29483346e+01 -4.29483346e+01  1.57765333e+02  1.57750007e+02 -1.30036279e+02 -1.30036279e+02 
 1.29520000e+11 -8.35144691e-01 -8.24910656e-01 -4.28548599e+01 -4.28548599e+01  1.57650161e+02  1.57634481e+02 -1.30220143e+02 -1.30220143e+02 
 1.29600000e+11 -8.35749517e-01 -8.25523042e-01 -4.27613371e+01 -4.27613371e+01  1.57534734e+02  1.57518697e+02 -1.30406253e+02 -1.30406253e+02 
 1.29680000e+11 -8.36362669e-01 -8.26144324e-01 -4.26677617e+01 -4.26677617e+01  1.57419050e+02  1.57402656e+02 -1.30594595e+02 -1.30594595e+02 
 1.29760000e+11 -8.36984273e-01 -8.26774636e-01 -4.25741293e+01 -4.25741293e+01  1.57303105e+02  1.57286352e+02 -1.30785153e+02 -1.30785153e+02 
 1.29840000e+11 -8.37614458e-01 -8.27414115e-01 -4.24804356e+01 -4.24804356e+01  1.57186897e+02  1.57169786e+02 -1.30977913e+02 -1.30977913e+02 
 1.29920000e+11 -8.38253356e-01 -8.28062901e-01 -4.23866763e+01 -4.23866763e+01  1.57070424e+02  1.57052952e+02 -1.31172861e+02 -1.31172861e+02 
 1.30000000e+11 -8.38901100e-01 -8.28721136e-01 -4.22928468e+01 -4.22928468e+01  1.56953684e+02  1.56935850e+02 -1.31369985e+02 -1.31369985e+02 
 1.30080000e+11 -8.39557829e-01 -8.29388967e-01 -4.21989429e+01 -4.21989429e+01  1.56836673e+02  1.56818477e+02 -1.31569270e+02 -1.31569270e+02 
 1.30160000e+11 -8.40223681e-01 -8.30066543e-01 -4.21049601e+01 -4.21049601e+01  1.56719388e+02  1.56700829e+02 -1.31770706e+02 -1.31770706e+02 
 1.30240000e+11 -8.40898800e-01 -8.30754015e-01 -4.20108942e+01 -4.20108942e+01  1.56601828e+02  1.56582905e+02 -1.31974279e+02 -1.31974279e+02 
 1.30320000e+11 -8.41583334e-01 -8.31451540e-01 -4.19167407e+01 -4.19167407e+01  1.56483990e+02  1.56464701e+02 -1.32179979e+02 -1.32179979e+02 
 1.30400000e+11 -8.42277430e-01 -8.32159276e-01 -4.18224952e+01 -4.18224952e+01  1.56365870e+02  1.56346215e+02 -1.32387794e+02 -1.32387794e+02 
 1.30480000e+11 -8.42981243e-01 -8.32877386e-01 -4.17281535e+01 -4.17281535e+01  1.56247467e+02  1.56227444e+02 -1.32597715e+02 -1.32597715e+02 
 1.30560000e+11 -8.43694927e-01 -8.33606035e-01 -4.16337111e+01 -4.16337111e+01  1.56128776e+02  1.56108386e+02 -1.32809730e+02 -1.32809730e+02 
 1.30640000e+11 -8.44418644e-01 -8.34345392e-01 -4.15391636e+01 -4.15391636e+01  1.56009796e+02  1.55989036e+02 -1.33023830e+02 -1.33023830e+02 
 1.30720000e+11 -8.45152557e-01 -8.35095632e-01 -4.14445068e+01 -4.14445068e+01  1.55890523e+02  1.55869393e+02 -1.33240006e+02 -1.33240006e+02 
 1.30800000e+11 -8.45896832e-01 -8.35856932e-01 -4.13497362e+01 -4.13497362e+01  1.55770955e+02  1.55749454e+02 -1.33458249e+02 -1.33458249e+02 
