 frequency       s11_db          s22_db          s33_db          s44_db          s11_deg         s22_deg         s33_deg         s44_deg         s12_db          s21_db          s13_db          s31_db          s14_db          s41_db          s12_deg         s21_deg         s13_deg         s31_deg         s14_deg         s41_deg         s23_db          s32_db          s24_db          s42_db          s23_deg         s32_deg         s24_deg         s42_deg         s34_db          s43_db          s34_deg         s43_deg        
 1.20000000e+11 -7.09891770e+00 -7.10396127e+00 -7.10408475e+00 -7.10086115e+00  1.26513710e+02  1.26565290e+02  1.26589722e+02  1.26535950e+02 -7.12893923e+00 -7.12893923e+00 -4.24672511e+00 -4.24672511e+00 -9.02485484e+00 -9.02485484e+00 -6.14007503e+01 -6.14007503e+01 -1.22458052e+02 -1.22458052e+02 -9.49513735e+01 -9.49513735e+01 -9.01797920e+00 -9.01797920e+00 -4.24645403e+00 -4.24645403e+00 -9.49328468e+01 -9.49328468e+01 -1.22460314e+02 -1.22460314e+02 -7.12792494e+00 -7.12792494e+00 -6.14018391e+01 -6.14018391e+01 
 1.20080000e+11 -7.10783435e+00 -7.11289340e+00 -7.11301514e+00 -7.10978382e+00  1.26433033e+02  1.26484637e+02  1.26509121e+02  1.26455306e+02 -7.12483041e+00 -7.12483041e+00 -4.24338789e+00 -4.24338789e+00 -9.03055313e+00 -9.03055313e+00 -6.14280389e+01 -6.14280389e+01 -1.22558269e+02 -1.22558269e+02 -9.50290311e+01 -9.50290311e+01 -9.02366473e+00 -9.02366473e+00 -4.24311655e+00 -4.24311655e+00 -9.50105311e+01 -9.50105311e+01 -1.22560539e+02 -1.22560539e+02 -7.12381717e+00 -7.12381717e+00 -6.14291424e+01 -6.14291423e+01 
 1.20160000e+11 -7.11678268e+00 -7.12185726e+00 -7.12197725e+00 -7.11873818e+00  1.26352270e+02  1.26403900e+02  1.26428436e+02  1.26374578e+02 -7.12070711e+00 -7.12070711e+00 -4.24005236e+00 -4.24005236e+00 -9.03627326e+00 -9.03627326e+00 -6.14554058e+01 -6.14554058e+01 -1.22658523e+02 -1.22658523e+02 -9.51066895e+01 -9.51066895e+01 -9.02937207e+00 -9.02937207e+00 -4.23978076e+00 -4.23978077e+00 -9.50882162e+01 -9.50882162e+01 -1.22660801e+02 -1.22660801e+02 -7.11969493e+00 -7.11969493e+00 -6.14565238e+01 -6.14565238e+01 
 1.20240000e+11 -7.12576279e+00 -7.13085296e+00 -7.13097119e+00 -7.12772434e+00  1.26271423e+02  1.26323078e+02  1.26347666e+02  1.26293766e+02 -7.11656936e+00 -7.11656936e+00 -4.23671853e+00 -4.23671853e+00 -9.04201530e+00 -9.04201530e+00 -6.14828514e+01 -6.14828514e+01 -1.22758813e+02 -1.22758813e+02 -9.51843484e+01 -9.51843484e+01 -9.03510129e+00 -9.03510129e+00 -4.23644669e+00 -4.23644669e+00 -9.51659020e+01 -9.51659020e+01 -1.22761100e+02 -1.22761100e+02 -7.11555825e+00 -7.11555825e+00 -6.14839840e+01 -6.14839840e+01 
 1.20320000e+11 -7.13477476e+00 -7.13988060e+00 -7.13999707e+00 -7.13674240e+00  1.26190491e+02  1.26242171e+02  1.26266811e+02  1.26212868e+02 -7.11241721e+00 -7.11241721e+00 -4.23338642e+00 -4.23338642e+00 -9.04777933e+00 -9.04777933e+00 -6.15103763e+01 -6.15103763e+01 -1.22859140e+02 -1.22859140e+02 -9.52620076e+01 -9.52620076e+01 -9.04085246e+00 -9.04085246e+00 -4.23311433e+00 -4.23311433e+00 -9.52435882e+01 -9.52435882e+01 -1.22861435e+02 -1.22861435e+02 -7.11140718e+00 -7.11140718e+00 -6.15115234e+01 -6.15115234e+01 
 1.20400000e+11 -7.14381872e+00 -7.14894029e+00 -7.14905498e+00 -7.14579247e+00  1.26109473e+02  1.26161179e+02  1.26185871e+02  1.26131885e+02 -7.10825069e+00 -7.10825069e+00 -4.23005604e+00 -4.23005604e+00 -9.05356542e+00 -9.05356542e+00 -6.15379809e+01 -6.15379809e+01 -1.22959504e+02 -1.22959504e+02 -9.53396668e+01 -9.53396668e+01 -9.04662566e+00 -9.04662566e+00 -4.22978370e+00 -4.22978370e+00 -9.53212746e+01 -9.53212746e+01 -1.22961807e+02 -1.22961807e+02 -7.10724174e+00 -7.10724174e+00 -6.15391425e+01 -6.15391425e+01 
 1.20480000e+11 -7.15289477e+00 -7.15803212e+00 -7.15814503e+00 -7.15487464e+00  1.26028370e+02  1.26080101e+02  1.26104845e+02  1.26050817e+02 -7.10406983e+00 -7.10406983e+00 -4.22672741e+00 -4.22672741e+00 -9.05937364e+00 -9.05937364e+00 -6.15656656e+01 -6.15656656e+01 -1.23059905e+02 -1.23059905e+02 -9.54173258e+01 -9.54173258e+01 -9.05242096e+00 -9.05242096e+00 -4.22645482e+00 -4.22645482e+00 -9.53989610e+01 -9.53989610e+01 -1.23062216e+02 -1.23062216e+02 -7.10306197e+00 -7.10306197e+00 -6.15668417e+01 -6.15668417e+01 
 1.20560000e+11 -7.16200300e+00 -7.16715622e+00 -7.16726733e+00 -7.16398903e+00  1.25947182e+02  1.25998937e+02  1.26023735e+02  1.25969663e+02 -7.09987467e+00 -7.09987467e+00 -4.22340052e+00 -4.22340052e+00 -9.06520406e+00 -9.06520406e+00 -6.15934309e+01 -6.15934309e+01 -1.23160342e+02 -1.23160342e+02 -9.54949843e+01 -9.54949843e+01 -9.05823844e+00 -9.05823844e+00 -4.22312769e+00 -4.22312769e+00 -9.54766472e+01 -9.54766472e+01 -1.23162662e+02 -1.23162662e+02 -7.09886792e+00 -7.09886792e+00 -6.15946215e+01 -6.15946215e+01 
 1.20640000e+11 -7.17114353e+00 -7.17631267e+00 -7.17642198e+00 -7.17313574e+00  1.25865907e+02  1.25917688e+02  1.25942539e+02  1.25888424e+02 -7.09566526e+00 -7.09566526e+00 -4.22007540e+00 -4.22007540e+00 -9.07105677e+00 -9.07105677e+00 -6.16212774e+01 -6.16212774e+01 -1.23260816e+02 -1.23260816e+02 -9.55726422e+01 -9.55726422e+01 -9.06407817e+00 -9.06407817e+00 -4.21980233e+00 -4.21980233e+00 -9.55543328e+01 -9.55543328e+01 -1.23263144e+02 -1.23263144e+02 -7.09465962e+00 -7.09465962e+00 -6.16224823e+01 -6.16224823e+01 
 1.20720000e+11 -7.18031646e+00 -7.18550159e+00 -7.18560909e+00 -7.18231487e+00  1.25784547e+02  1.25836354e+02  1.25861257e+02  1.25807099e+02 -7.09144163e+00 -7.09144163e+00 -4.21675206e+00 -4.21675206e+00 -9.07693184e+00 -9.07693184e+00 -6.16492054e+01 -6.16492054e+01 -1.23361328e+02 -1.23361328e+02 -9.56502991e+01 -9.56502991e+01 -9.06994022e+00 -9.06994022e+00 -4.21647875e+00 -4.21647875e+00 -9.56320176e+01 -9.56320176e+01 -1.23363664e+02 -1.23363664e+02 -7.09043710e+00 -7.09043710e+00 -6.16504247e+01 -6.16504247e+01 
 1.20800000e+11 -7.18952189e+00 -7.19472309e+00 -7.19482877e+00 -7.19152654e+00  1.25703101e+02  1.25754933e+02  1.25779889e+02  1.25725688e+02 -7.08720382e+00 -7.08720381e+00 -4.21343051e+00 -4.21343051e+00 -9.08282933e+00 -9.08282933e+00 -6.16772154e+01 -6.16772154e+01 -1.23461876e+02 -1.23461876e+02 -9.57279548e+01 -9.57279548e+01 -9.07582467e+00 -9.07582467e+00 -4.21315696e+00 -4.21315696e+00 -9.57097014e+01 -9.57097014e+01 -1.23464220e+02 -1.23464220e+02 -7.08620041e+00 -7.08620041e+00 -6.16784491e+01 -6.16784491e+01 
 1.20880000e+11 -7.19875995e+00 -7.20397726e+00 -7.20408111e+00 -7.20077085e+00  1.25621569e+02  1.25673425e+02  1.25698435e+02  1.25644191e+02 -7.08295186e+00 -7.08295186e+00 -4.21011076e+00 -4.21011076e+00 -9.08874933e+00 -9.08874933e+00 -6.17053080e+01 -6.17053080e+01 -1.23562460e+02 -1.23562460e+02 -9.58056091e+01 -9.58056091e+01 -9.08173159e+00 -9.08173159e+00 -4.20983698e+00 -4.20983698e+00 -9.57873839e+01 -9.57873839e+01 -1.23564813e+02 -1.23564813e+02 -7.08194959e+00 -7.08194959e+00 -6.17065559e+01 -6.17065559e+01 
 1.20960000e+11 -7.20803072e+00 -7.21326423e+00 -7.21336624e+00 -7.21004790e+00  1.25539950e+02  1.25591832e+02  1.25616895e+02  1.25562607e+02 -7.07868580e+00 -7.07868580e+00 -4.20679283e+00 -4.20679283e+00 -9.09469192e+00 -9.09469192e+00 -6.17334834e+01 -6.17334834e+01 -1.23663082e+02 -1.23663082e+02 -9.58832617e+01 -9.58832617e+01 -9.08766106e+00 -9.08766106e+00 -4.20651882e+00 -4.20651882e+00 -9.58650649e+01 -9.58650649e+01 -1.23665443e+02 -1.23665443e+02 -7.07768467e+00 -7.07768467e+00 -6.17347457e+01 -6.17347457e+01 
 1.21040000e+11 -7.21733432e+00 -7.22258409e+00 -7.22268425e+00 -7.21935780e+00  1.25458245e+02  1.25510152e+02  1.25535268e+02  1.25480938e+02 -7.07440567e+00 -7.07440567e+00 -4.20347672e+00 -4.20347672e+00 -9.10065716e+00 -9.10065716e+00 -6.17617423e+01 -6.17617423e+01 -1.23763741e+02 -1.23763741e+02 -9.59609123e+01 -9.59609123e+01 -9.09361316e+00 -9.09361316e+00 -4.20320249e+00 -4.20320249e+00 -9.59427441e+01 -9.59427441e+01 -1.23766110e+02 -1.23766110e+02 -7.07340570e+00 -7.07340570e+00 -6.17630188e+01 -6.17630188e+01 
 1.21120000e+11 -7.22667086e+00 -7.23193696e+00 -7.23203526e+00 -7.22870067e+00  1.25376452e+02  1.25428385e+02  1.25453555e+02  1.25399181e+02 -7.07011153e+00 -7.07011153e+00 -4.20016246e+00 -4.20016246e+00 -9.10664513e+00 -9.10664513e+00 -6.17900851e+01 -6.17900851e+01 -1.23864437e+02 -1.23864437e+02 -9.60385608e+01 -9.60385608e+01 -9.09958795e+00 -9.09958795e+00 -4.19988800e+00 -4.19988800e+00 -9.60204213e+01 -9.60204213e+01 -1.23866815e+02 -1.23866815e+02 -7.06911271e+00 -7.06911271e+00 -6.17913758e+01 -6.17913758e+01 
 1.21200000e+11 -7.23604045e+00 -7.24132295e+00 -7.24141938e+00 -7.23807662e+00  1.25294573e+02  1.25346531e+02  1.25371754e+02  1.25317338e+02 -7.06580339e+00 -7.06580339e+00 -4.19685005e+00 -4.19685005e+00 -9.11265591e+00 -9.11265591e+00 -6.18185122e+01 -6.18185122e+01 -1.23965170e+02 -1.23965170e+02 -9.61162067e+01 -9.61162067e+01 -9.10558553e+00 -9.10558553e+00 -4.19657537e+00 -4.19657537e+00 -9.60980961e+01 -9.60980961e+01 -1.23967556e+02 -1.23967556e+02 -7.06480574e+00 -7.06480574e+00 -6.18198171e+01 -6.18198171e+01 
 1.21280000e+11 -7.24544319e+00 -7.25074216e+00 -7.25083671e+00 -7.24748574e+00  1.25212607e+02  1.25264590e+02  1.25289867e+02  1.25235407e+02 -7.06148132e+00 -7.06148132e+00 -4.19353950e+00 -4.19353950e+00 -9.11868958e+00 -9.11868958e+00 -6.18470241e+01 -6.18470241e+01 -1.24065940e+02 -1.24065940e+02 -9.61938499e+01 -9.61938499e+01 -9.11160595e+00 -9.11160595e+00 -4.19326460e+00 -4.19326460e+00 -9.61757684e+01 -9.61757684e+01 -1.24068334e+02 -1.24068334e+02 -7.06048484e+00 -7.06048484e+00 -6.18483431e+01 -6.18483431e+01 
 1.21360000e+11 -7.25487920e+00 -7.26019471e+00 -7.26028737e+00 -7.25692816e+00  1.25130554e+02  1.25182562e+02  1.25207893e+02  1.25153390e+02 -7.05714535e+00 -7.05714535e+00 -4.19023083e+00 -4.19023083e+00 -9.12474621e+00 -9.12474621e+00 -6.18756213e+01 -6.18756213e+01 -1.24166747e+02 -1.24166747e+02 -9.62714901e+01 -9.62714901e+01 -9.11764931e+00 -9.11764931e+00 -4.18995572e+00 -4.18995572e+00 -9.62534379e+01 -9.62534379e+01 -1.24169150e+02 -1.24169150e+02 -7.05615005e+00 -7.05615005e+00 -6.18769544e+01 -6.18769544e+01 
 1.21440000e+11 -7.26434859e+00 -7.26968070e+00 -7.26977147e+00 -7.26640398e+00  1.25048413e+02  1.25100446e+02  1.25125832e+02  1.25071285e+02 -7.05279551e+00 -7.05279551e+00 -4.18692405e+00 -4.18692405e+00 -9.13082588e+00 -9.13082588e+00 -6.19043042e+01 -6.19043042e+01 -1.24267592e+02 -1.24267592e+02 -9.63491270e+01 -9.63491270e+01 -9.12371567e+00 -9.12371567e+00 -4.18664873e+00 -4.18664873e+00 -9.63311043e+01 -9.63311043e+01 -1.24270003e+02 -1.24270003e+02 -7.05180140e+00 -7.05180140e+00 -6.19056514e+01 -6.19056514e+01 
 1.21520000e+11 -7.27385147e+00 -7.27920026e+00 -7.27928912e+00 -7.27591332e+00  1.24966184e+02  1.25018243e+02  1.25043683e+02  1.24989093e+02 -7.04843186e+00 -7.04843186e+00 -4.18361918e+00 -4.18361918e+00 -9.13692867e+00 -9.13692867e+00 -6.19330733e+01 -6.19330733e+01 -1.24368473e+02 -1.24368473e+02 -9.64267603e+01 -9.64267603e+01 -9.12980511e+00 -9.12980511e+00 -4.18334365e+00 -4.18334365e+00 -9.64087673e+01 -9.64087673e+01 -1.24370893e+02 -1.24370893e+02 -7.04743894e+00 -7.04743894e+00 -6.19344345e+01 -6.19344345e+01 
 1.21600000e+11 -7.28338795e+00 -7.28875348e+00 -7.28884043e+00 -7.28545628e+00  1.24883868e+02  1.24935952e+02  1.24961446e+02  1.24906813e+02 -7.04405443e+00 -7.04405443e+00 -4.18031622e+00 -4.18031622e+00 -9.14305465e+00 -9.14305465e+00 -6.19619290e+01 -6.19619290e+01 -1.24469392e+02 -1.24469392e+02 -9.65043899e+01 -9.65043899e+01 -9.13591772e+00 -9.13591772e+00 -4.18004048e+00 -4.18004048e+00 -9.64864266e+01 -9.64864266e+01 -1.24471820e+02 -1.24471820e+02 -7.04306272e+00 -7.04306272e+00 -6.19633042e+01 -6.19633042e+01 
 1.21680000e+11 -7.29295814e+00 -7.29834049e+00 -7.29842551e+00 -7.29503299e+00  1.24801464e+02  1.24853572e+02  1.24879122e+02  1.24824445e+02 -7.03966327e+00 -7.03966327e+00 -4.17701520e+00 -4.17701520e+00 -9.14920390e+00 -9.14920390e+00 -6.19908717e+01 -6.19908717e+01 -1.24570348e+02 -1.24570348e+02 -9.65820153e+01 -9.65820153e+01 -9.14205357e+00 -9.14205357e+00 -4.17673925e+00 -4.17673925e+00 -9.65640821e+01 -9.65640821e+01 -1.24572784e+02 -1.24572784e+02 -7.03867277e+00 -7.03867277e+00 -6.19922609e+01 -6.19922609e+01 
 1.21760000e+11 -7.30256216e+00 -7.30796140e+00 -7.30804448e+00 -7.30464354e+00  1.24718971e+02  1.24771105e+02  1.24796709e+02  1.24741989e+02 -7.03525842e+00 -7.03525842e+00 -4.17371611e+00 -4.17371611e+00 -9.15537651e+00 -9.15537651e+00 -6.20199021e+01 -6.20199021e+01 -1.24671342e+02 -1.24671342e+02 -9.66596364e+01 -9.66596364e+01 -9.14821273e+00 -9.14821273e+00 -4.17343997e+00 -4.17343997e+00 -9.66417333e+01 -9.66417333e+01 -1.24673786e+02 -1.24673786e+02 -7.03426914e+00 -7.03426914e+00 -6.20213052e+01 -6.20213052e+01 
 1.21840000e+11 -7.31220012e+00 -7.31761632e+00 -7.31769745e+00 -7.31428807e+00  1.24636390e+02  1.24688549e+02  1.24714208e+02  1.24659444e+02 -7.03083992e+00 -7.03083992e+00 -4.17041899e+00 -4.17041898e+00 -9.16157254e+00 -9.16157255e+00 -6.20490204e+01 -6.20490204e+01 -1.24772372e+02 -1.24772372e+02 -9.67372528e+01 -9.67372528e+01 -9.15439529e+00 -9.15439529e+00 -4.17014264e+00 -4.17014264e+00 -9.67193801e+01 -9.67193801e+01 -1.24774825e+02 -1.24774825e+02 -7.02985187e+00 -7.02985187e+00 -6.20504374e+01 -6.20504374e+01 
 1.21920000e+11 -7.32187213e+00 -7.32730536e+00 -7.32738454e+00 -7.32396667e+00  1.24553720e+02  1.24605905e+02  1.24631619e+02  1.24576811e+02 -7.02640782e+00 -7.02640782e+00 -4.16712383e+00 -4.16712383e+00 -9.16779209e+00 -9.16779209e+00 -6.20782271e+01 -6.20782271e+01 -1.24873440e+02 -1.24873440e+02 -9.68148643e+01 -9.68148643e+01 -9.16060132e+00 -9.16060132e+00 -4.16684728e+00 -4.16684728e+00 -9.67970221e+01 -9.67970221e+01 -1.24875902e+02 -1.24875902e+02 -7.02542100e+00 -7.02542100e+00 -6.20796580e+01 -6.20796580e+01 
 1.22000000e+11 -7.33157831e+00 -7.33702864e+00 -7.33710585e+00 -7.33367947e+00  1.24470962e+02  1.24523172e+02  1.24548941e+02  1.24494090e+02 -7.02196216e+00 -7.02196216e+00 -4.16383065e+00 -4.16383065e+00 -9.17403522e+00 -9.17403522e+00 -6.21075228e+01 -6.21075228e+01 -1.24974546e+02 -1.24974546e+02 -9.68924706e+01 -9.68924705e+01 -9.16683090e+00 -9.16683090e+00 -4.16355391e+00 -4.16355391e+00 -9.68746591e+01 -9.68746591e+01 -1.24977016e+02 -1.24977016e+02 -7.02097659e+00 -7.02097659e+00 -6.21089675e+01 -6.21089675e+01 
 1.22080000e+11 -7.34131877e+00 -7.34678628e+00 -7.34686152e+00 -7.34342657e+00  1.24388115e+02  1.24440350e+02  1.24466175e+02  1.24411280e+02 -7.01750298e+00 -7.01750298e+00 -4.16053946e+00 -4.16053946e+00 -9.18030202e+00 -9.18030202e+00 -6.21369078e+01 -6.21369078e+01 -1.25075689e+02 -1.25075689e+02 -9.69700713e+01 -9.69700713e+01 -9.17308412e+00 -9.17308412e+00 -4.16026254e+00 -4.16026254e+00 -9.69522907e+01 -9.69522907e+01 -1.25078167e+02 -1.25078167e+02 -7.01651866e+00 -7.01651866e+00 -6.21383663e+01 -6.21383663e+01 
 1.22160000e+11 -7.35109363e+00 -7.35657839e+00 -7.35665164e+00 -7.35320811e+00  1.24305179e+02  1.24357439e+02  1.24383319e+02  1.24328380e+02 -7.01303034e+00 -7.01303034e+00 -4.15725029e+00 -4.15725029e+00 -9.18659256e+00 -9.18659256e+00 -6.21663825e+01 -6.21663826e+01 -1.25176869e+02 -1.25176869e+02 -9.70476662e+01 -9.70476662e+01 -9.17936105e+00 -9.17936105e+00 -4.15697318e+00 -4.15697318e+00 -9.70299168e+01 -9.70299168e+01 -1.25179356e+02 -1.25179356e+02 -7.01204727e+00 -7.01204727e+00 -6.21678548e+01 -6.21678548e+01 
 1.22240000e+11 -7.36090301e+00 -7.36640509e+00 -7.36647635e+00 -7.36302418e+00  1.24222153e+02  1.24274438e+02  1.24300374e+02  1.24245392e+02 -7.00854427e+00 -7.00854427e+00 -4.15396314e+00 -4.15396314e+00 -9.19290693e+00 -9.19290693e+00 -6.21959476e+01 -6.21959476e+01 -1.25278087e+02 -1.25278087e+02 -9.71252551e+01 -9.71252551e+01 -9.18566177e+00 -9.18566177e+00 -4.15368584e+00 -4.15368584e+00 -9.71075369e+01 -9.71075369e+01 -1.25280582e+02 -1.25280582e+02 -7.00756247e+00 -7.00756247e+00 -6.21974336e+01 -6.21974336e+01 
 1.22320000e+11 -7.37074702e+00 -7.37626650e+00 -7.37633575e+00 -7.37287492e+00  1.24139038e+02  1.24191348e+02  1.24217340e+02  1.24162314e+02 -7.00404482e+00 -7.00404482e+00 -4.15067802e+00 -4.15067802e+00 -9.19924521e+00 -9.19924521e+00 -6.22256033e+01 -6.22256033e+01 -1.25379342e+02 -1.25379342e+02 -9.72028375e+01 -9.72028375e+01 -9.19198637e+00 -9.19198637e+00 -4.15040054e+00 -4.15040054e+00 -9.71851509e+01 -9.71851509e+01 -1.25381846e+02 -1.25381846e+02 -7.00306429e+00 -7.00306429e+00 -6.22271030e+01 -6.22271030e+01 
 1.22400000e+11 -7.38062578e+00 -7.38616273e+00 -7.38622996e+00 -7.38276044e+00  1.24055833e+02  1.24108169e+02  1.24134217e+02  1.24079147e+02 -6.99953203e+00 -6.99953203e+00 -4.14739495e+00 -4.14739495e+00 -9.20560747e+00 -9.20560747e+00 -6.22553501e+01 -6.22553501e+01 -1.25480635e+02 -1.25480635e+02 -9.72804133e+01 -9.72804133e+01 -9.19833491e+00 -9.19833491e+00 -4.14711729e+00 -4.14711729e+00 -9.72627583e+01 -9.72627583e+01 -1.25483147e+02 -1.25483147e+02 -6.99855279e+00 -6.99855279e+00 -6.22568635e+01 -6.22568635e+01 
 1.22480000e+11 -7.39053941e+00 -7.39609390e+00 -7.39615911e+00 -7.39268085e+00  1.23972538e+02  1.24024899e+02  1.24051003e+02  1.23995889e+02 -6.99500596e+00 -6.99500596e+00 -4.14411394e+00 -4.14411394e+00 -9.21199381e+00 -9.21199381e+00 -6.22851886e+01 -6.22851886e+01 -1.25581966e+02 -1.25581966e+02 -9.73579821e+01 -9.73579821e+01 -9.20470749e+00 -9.20470749e+00 -4.14383611e+00 -4.14383611e+00 -9.73403590e+01 -9.73403590e+01 -1.25584487e+02 -1.25584487e+02 -6.99402800e+00 -6.99402800e+00 -6.22867155e+01 -6.22867155e+01 
 1.22560000e+11 -7.40048802e+00 -7.40606014e+00 -7.40612331e+00 -7.40263627e+00  1.23889153e+02  1.23941540e+02  1.23967700e+02  1.23912542e+02 -6.99046665e+00 -6.99046665e+00 -4.14083500e+00 -4.14083500e+00 -9.21840429e+00 -9.21840429e+00 -6.23151190e+01 -6.23151190e+01 -1.25683334e+02 -1.25683334e+02 -9.74355436e+01 -9.74355436e+01 -9.21110418e+00 -9.21110418e+00 -4.14055700e+00 -4.14055700e+00 -9.74179525e+01 -9.74179525e+01 -1.25685863e+02 -1.25685863e+02 -6.98948999e+00 -6.98948999e+00 -6.23166596e+01 -6.23166596e+01 
 1.22640000e+11 -7.41047174e+00 -7.41606156e+00 -7.41612268e+00 -7.41262683e+00  1.23805678e+02  1.23858090e+02  1.23884306e+02  1.23829105e+02 -6.98591414e+00 -6.98591414e+00 -4.13755816e+00 -4.13755816e+00 -9.22483900e+00 -9.22483900e+00 -6.23451419e+01 -6.23451419e+01 -1.25784740e+02 -1.25784740e+02 -9.75130975e+01 -9.75130975e+01 -9.21752507e+00 -9.21752507e+00 -4.13727999e+00 -4.13727999e+00 -9.74955386e+01 -9.74955386e+01 -1.25787278e+02 -1.25787278e+02 -6.98493878e+00 -6.98493878e+00 -6.23466960e+01 -6.23466960e+01 
 1.22720000e+11 -7.42049069e+00 -7.42609827e+00 -7.42615734e+00 -7.42265264e+00  1.23722112e+02  1.23774549e+02  1.23800823e+02  1.23745577e+02 -6.98134849e+00 -6.98134849e+00 -4.13428342e+00 -4.13428342e+00 -9.23129802e+00 -9.23129802e+00 -6.23752578e+01 -6.23752578e+01 -1.25886183e+02 -1.25886183e+02 -9.75906435e+01 -9.75906435e+01 -9.22397023e+00 -9.22397023e+00 -4.13400508e+00 -4.13400508e+00 -9.75731171e+01 -9.75731171e+01 -1.25888730e+02 -1.25888730e+02 -6.98037444e+00 -6.98037444e+00 -6.23768253e+01 -6.23768253e+01 
 1.22800000e+11 -7.43054498e+00 -7.43617042e+00 -7.43622741e+00 -7.43271383e+00  1.23638456e+02  1.23690918e+02  1.23717248e+02  1.23661959e+02 -6.97676974e+00 -6.97676974e+00 -4.13101079e+00 -4.13101079e+00 -9.23778144e+00 -9.23778144e+00 -6.24054669e+01 -6.24054669e+01 -1.25987665e+02 -1.25987665e+02 -9.76681812e+01 -9.76681812e+01 -9.23043975e+00 -9.23043975e+00 -4.13073229e+00 -4.13073229e+00 -9.76506875e+01 -9.76506875e+01 -1.25990220e+02 -1.25990220e+02 -6.97579700e+00 -6.97579701e+00 -6.24070480e+01 -6.24070480e+01 
