 frequency       s11_db          s22_db          s33_db          s44_db          s11_deg         s22_deg         s33_deg         s44_deg         s12_db          s21_db          s13_db          s31_db          s14_db          s41_db          s12_deg         s21_deg         s13_deg         s31_deg         s14_deg         s41_deg         s23_db          s32_db          s24_db          s42_db          s23_deg         s32_deg         s24_deg         s42_deg         s34_db          s43_db          s34_deg         s43_deg        
 1.20000000e+11 -7.08831236e+00 -7.09337542e+00 -7.09342862e+00 -7.09027314e+00  1.26724276e+02  1.26775479e+02  1.26799821e+02  1.26746367e+02 -7.09267375e+00 -7.09267375e+00 -4.27852690e+00 -4.27852691e+00 -9.05414803e+00 -9.05414803e+00 -6.14784129e+01 -6.14784129e+01 -1.22715840e+02 -1.22715840e+02 -9.51108533e+01 -9.51108533e+01 -9.04728701e+00 -9.04728701e+00 -4.27825289e+00 -4.27825288e+00 -9.50927489e+01 -9.50927489e+01 -1.22718193e+02 -1.22718193e+02 -7.09169060e+00 -7.09169059e+00 -6.14794253e+01 -6.14794252e+01 
 1.20080000e+11 -7.09719269e+00 -7.10227104e+00 -7.10232288e+00 -7.09915922e+00  1.26643585e+02  1.26694819e+02  1.26719210e+02  1.26665712e+02 -7.08876813e+00 -7.08876814e+00 -4.27508822e+00 -4.27508823e+00 -9.05988223e+00 -9.05988223e+00 -6.15067863e+01 -6.15067863e+01 -1.22812622e+02 -1.22812622e+02 -9.51840433e+01 -9.51840433e+01 -9.05300829e+00 -9.05300829e+00 -4.27481408e+00 -4.27481407e+00 -9.51659648e+01 -9.51659648e+01 -1.22814981e+02 -1.22814981e+02 -7.08778583e+00 -7.08778582e+00 -6.15078119e+01 -6.15078119e+01 
 1.20160000e+11 -7.10610561e+00 -7.11119930e+00 -7.11124978e+00 -7.10807791e+00  1.26562802e+02  1.26614067e+02  1.26638508e+02  1.26584963e+02 -7.08484851e+00 -7.08484851e+00 -4.27165013e+00 -4.27165014e+00 -9.06563631e+00 -9.06563631e+00 -6.15352276e+01 -6.15352276e+01 -1.22909459e+02 -1.22909459e+02 -9.52572588e+01 -9.52572589e+01 -9.05874942e+00 -9.05874942e+00 -4.27137586e+00 -4.27137586e+00 -9.52392063e+01 -9.52392063e+01 -1.22911826e+02 -1.22911826e+02 -7.08386706e+00 -7.08386705e+00 -6.15362663e+01 -6.15362663e+01 
 1.20240000e+11 -7.11505123e+00 -7.12016033e+00 -7.12020943e+00 -7.11702932e+00  1.26481926e+02  1.26533222e+02  1.26557712e+02  1.26504123e+02 -7.08091490e+00 -7.08091490e+00 -4.26821266e+00 -4.26821266e+00 -9.07141035e+00 -9.07141035e+00 -6.15637372e+01 -6.15637372e+01 -1.23006353e+02 -1.23006353e+02 -9.53304996e+01 -9.53304996e+01 -9.06451049e+00 -9.06451049e+00 -4.26793826e+00 -4.26793826e+00 -9.53124732e+01 -9.53124732e+01 -1.23008726e+02 -1.23008726e+02 -7.07993431e+00 -7.07993431e+00 -6.15647890e+01 -6.15647890e+01 
 1.20320000e+11 -7.12402966e+00 -7.12915424e+00 -7.12920195e+00 -7.12601357e+00  1.26400957e+02  1.26452284e+02  1.26476824e+02  1.26423189e+02 -7.07696732e+00 -7.07696733e+00 -4.26477583e+00 -4.26477583e+00 -9.07720446e+00 -9.07720446e+00 -6.15923155e+01 -6.15923155e+01 -1.23103303e+02 -1.23103303e+02 -9.54037655e+01 -9.54037655e+01 -9.07029158e+00 -9.07029158e+00 -4.26450130e+00 -4.26450130e+00 -9.53857653e+01 -9.53857653e+01 -1.23105683e+02 -1.23105683e+02 -7.07598761e+00 -7.07598760e+00 -6.15933804e+01 -6.15933804e+01 
 1.20400000e+11 -7.13304102e+00 -7.13818114e+00 -7.13822746e+00 -7.13503077e+00  1.26319895e+02  1.26371253e+02  1.26395843e+02  1.26342163e+02 -7.07300581e+00 -7.07300581e+00 -4.26133966e+00 -4.26133966e+00 -9.08301871e+00 -9.08301871e+00 -6.16209630e+01 -6.16209630e+01 -1.23200309e+02 -1.23200309e+02 -9.54770561e+01 -9.54770561e+01 -9.07609279e+00 -9.07609279e+00 -4.26106501e+00 -4.26106501e+00 -9.54590824e+01 -9.54590824e+01 -1.23202697e+02 -1.23202697e+02 -7.07202697e+00 -7.07202697e+00 -6.16220410e+01 -6.16220410e+01 
 1.20480000e+11 -7.14208542e+00 -7.14724114e+00 -7.14728606e+00 -7.14408103e+00  1.26238740e+02  1.26290129e+02  1.26314769e+02  1.26261043e+02 -7.06903037e+00 -7.06903038e+00 -4.25790418e+00 -4.25790418e+00 -9.08885319e+00 -9.08885319e+00 -6.16496802e+01 -6.16496802e+01 -1.23297371e+02 -1.23297371e+02 -9.55503715e+01 -9.55503715e+01 -9.08191420e+00 -9.08191420e+00 -4.25762941e+00 -4.25762941e+00 -9.55324244e+01 -9.55324244e+01 -1.23299766e+02 -1.23299766e+02 -7.06805242e+00 -7.06805242e+00 -6.16507712e+01 -6.16507712e+01 
 1.20560000e+11 -7.15116297e+00 -7.15633436e+00 -7.15637787e+00 -7.15316448e+00  1.26157491e+02  1.26208912e+02  1.26233602e+02  1.26179830e+02 -7.06504104e+00 -7.06504104e+00 -4.25446942e+00 -4.25446942e+00 -9.09470800e+00 -9.09470800e+00 -6.16784675e+01 -6.16784675e+01 -1.23394490e+02 -1.23394490e+02 -9.56237112e+01 -9.56237112e+01 -9.08775591e+00 -9.08775591e+00 -4.25419453e+00 -4.25419453e+00 -9.56057909e+01 -9.56057909e+01 -1.23396892e+02 -1.23396892e+02 -7.06406398e+00 -7.06406398e+00 -6.16795715e+01 -6.16795715e+01 
 1.20640000e+11 -7.16027379e+00 -7.16546092e+00 -7.16550301e+00 -7.16228121e+00  1.26076150e+02  1.26127601e+02  1.26152342e+02  1.26098524e+02 -7.06103783e+00 -7.06103784e+00 -4.25103539e+00 -4.25103540e+00 -9.10058323e+00 -9.10058323e+00 -6.17073253e+01 -6.17073254e+01 -1.23491665e+02 -1.23491665e+02 -9.56970751e+01 -9.56970751e+01 -9.09361800e+00 -9.09361800e+00 -4.25076039e+00 -4.25076039e+00 -9.56791818e+01 -9.56791818e+01 -1.23494074e+02 -1.23494074e+02 -7.06006168e+00 -7.06006167e+00 -6.17084424e+01 -6.17084424e+01 
 1.20720000e+11 -7.16941800e+00 -7.17462093e+00 -7.17466159e+00 -7.17143136e+00  1.25994714e+02  1.26046197e+02  1.26070988e+02  1.26017125e+02 -7.05702078e+00 -7.05702078e+00 -4.24760214e+00 -4.24760214e+00 -9.10647897e+00 -9.10647897e+00 -6.17362543e+01 -6.17362543e+01 -1.23588896e+02 -1.23588896e+02 -9.57704630e+01 -9.57704630e+01 -9.09950057e+00 -9.09950057e+00 -4.24732702e+00 -4.24732701e+00 -9.57525969e+01 -9.57525969e+01 -1.23591313e+02 -1.23591313e+02 -7.05604553e+00 -7.05604553e+00 -6.17373844e+01 -6.17373844e+01 
 1.20800000e+11 -7.17859571e+00 -7.18381450e+00 -7.18385374e+00 -7.18061504e+00  1.25913185e+02  1.25964699e+02  1.25989540e+02  1.25935632e+02 -7.05298990e+00 -7.05298990e+00 -4.24416967e+00 -4.24416968e+00 -9.11239531e+00 -9.11239531e+00 -6.17652547e+01 -6.17652547e+01 -1.23686184e+02 -1.23686184e+02 -9.58438747e+01 -9.58438747e+01 -9.10540370e+00 -9.10540370e+00 -4.24389444e+00 -4.24389443e+00 -9.58260359e+01 -9.58260358e+01 -1.23688608e+02 -1.23688608e+02 -7.05201557e+00 -7.05201557e+00 -6.17663978e+01 -6.17663978e+01 
 1.20880000e+11 -7.18780704e+00 -7.19304177e+00 -7.19307956e+00 -7.18983236e+00  1.25831562e+02  1.25883107e+02  1.25907999e+02  1.25854045e+02 -7.04894522e+00 -7.04894523e+00 -4.24073802e+00 -4.24073803e+00 -9.11833234e+00 -9.11833234e+00 -6.17943271e+01 -6.17943271e+01 -1.23783528e+02 -1.23783528e+02 -9.59173099e+01 -9.59173099e+01 -9.11132750e+00 -9.11132750e+00 -4.24046267e+00 -4.24046267e+00 -9.58994986e+01 -9.58994985e+01 -1.23785959e+02 -1.23785959e+02 -7.04797182e+00 -7.04797181e+00 -6.17954832e+01 -6.17954831e+01 
 1.20960000e+11 -7.19705211e+00 -7.20230283e+00 -7.20233917e+00 -7.19908344e+00  1.25749845e+02  1.25801421e+02  1.25826364e+02  1.25772364e+02 -7.04488677e+00 -7.04488677e+00 -4.23730722e+00 -4.23730722e+00 -9.12429015e+00 -9.12429015e+00 -6.18234719e+01 -6.18234719e+01 -1.23880929e+02 -1.23880929e+02 -9.59907684e+01 -9.59907684e+01 -9.11727204e+00 -9.11727204e+00 -4.23703176e+00 -4.23703175e+00 -9.59729847e+01 -9.59729847e+01 -1.23883367e+02 -1.23883367e+02 -7.04391429e+00 -7.04391429e+00 -6.18246409e+01 -6.18246409e+01 
 1.21040000e+11 -7.20633103e+00 -7.21159782e+00 -7.21163270e+00 -7.20836841e+00  1.25668034e+02  1.25719641e+02  1.25744636e+02  1.25690590e+02 -7.04081456e+00 -7.04081457e+00 -4.23387728e+00 -4.23387728e+00 -9.13026883e+00 -9.13026883e+00 -6.18526896e+01 -6.18526897e+01 -1.23978386e+02 -1.23978386e+02 -9.60642500e+01 -9.60642500e+01 -9.12323743e+00 -9.12323743e+00 -4.23360171e+00 -4.23360170e+00 -9.60464942e+01 -9.60464941e+01 -1.23980831e+02 -1.23980832e+02 -7.03984303e+00 -7.03984303e+00 -6.18538716e+01 -6.18538716e+01 
 1.21120000e+11 -7.21564393e+00 -7.22092685e+00 -7.22096026e+00 -7.21768736e+00  1.25586129e+02  1.25637767e+02  1.25662813e+02  1.25608721e+02 -7.03672864e+00 -7.03672864e+00 -4.23044823e+00 -4.23044823e+00 -9.13626848e+00 -9.13626848e+00 -6.18819807e+01 -6.18819807e+01 -1.24075900e+02 -1.24075900e+02 -9.61377544e+01 -9.61377545e+01 -9.12922375e+00 -9.12922375e+00 -4.23017255e+00 -4.23017255e+00 -9.61200266e+01 -9.61200266e+01 -1.24078353e+02 -1.24078353e+02 -7.03575805e+00 -7.03575805e+00 -6.18831756e+01 -6.18831756e+01 
 1.21200000e+11 -7.22499091e+00 -7.23029004e+00 -7.23032196e+00 -7.22704044e+00  1.25504130e+02  1.25555798e+02  1.25580895e+02  1.25526758e+02 -7.03262901e+00 -7.03262902e+00 -4.22702010e+00 -4.22702011e+00 -9.14228920e+00 -9.14228920e+00 -6.19113456e+01 -6.19113456e+01 -1.24173470e+02 -1.24173470e+02 -9.62112815e+01 -9.62112815e+01 -9.13523109e+00 -9.13523109e+00 -4.22674432e+00 -4.22674432e+00 -9.61935818e+01 -9.61935818e+01 -1.24175930e+02 -1.24175930e+02 -7.03165938e+00 -7.03165938e+00 -6.19125534e+01 -6.19125533e+01 
 1.21280000e+11 -7.23437210e+00 -7.23968750e+00 -7.23971794e+00 -7.23642775e+00  1.25422036e+02  1.25473735e+02  1.25498884e+02  1.25444700e+02 -7.02851572e+00 -7.02851572e+00 -4.22359292e+00 -4.22359292e+00 -9.14833106e+00 -9.14833106e+00 -6.19407848e+01 -6.19407848e+01 -1.24271097e+02 -1.24271097e+02 -9.62848309e+01 -9.62848309e+01 -9.14125956e+00 -9.14125956e+00 -4.22331703e+00 -4.22331703e+00 -9.62671596e+01 -9.62671596e+01 -1.24273565e+02 -1.24273565e+02 -7.02754705e+00 -7.02754704e+00 -6.19420054e+01 -6.19420054e+01 
 1.21360000e+11 -7.24378763e+00 -7.24911937e+00 -7.24914831e+00 -7.24584942e+00  1.25339847e+02  1.25391577e+02  1.25416778e+02  1.25362548e+02 -7.02438878e+00 -7.02438878e+00 -4.22016670e+00 -4.22016671e+00 -9.15439418e+00 -9.15439417e+00 -6.19702987e+01 -6.19702987e+01 -1.24368781e+02 -1.24368781e+02 -9.63584024e+01 -9.63584024e+01 -9.14730924e+00 -9.14730924e+00 -4.21989071e+00 -4.21989071e+00 -9.63407597e+01 -9.63407597e+01 -1.24371256e+02 -1.24371256e+02 -7.02342108e+00 -7.02342107e+00 -6.19715322e+01 -6.19715321e+01 
 1.21440000e+11 -7.25323761e+00 -7.25858575e+00 -7.25861319e+00 -7.25530557e+00  1.25257563e+02  1.25309324e+02  1.25334577e+02  1.25280301e+02 -7.02024822e+00 -7.02024822e+00 -4.21674148e+00 -4.21674149e+00 -9.16047863e+00 -9.16047863e+00 -6.19998878e+01 -6.19998878e+01 -1.24466521e+02 -1.24466521e+02 -9.64319958e+01 -9.64319958e+01 -9.15338023e+00 -9.15338023e+00 -4.21646539e+00 -4.21646539e+00 -9.64143818e+01 -9.64143818e+01 -1.24469003e+02 -1.24469003e+02 -7.01928150e+00 -7.01928150e+00 -6.20011341e+01 -6.20011341e+01 
 1.21520000e+11 -7.26272215e+00 -7.26808678e+00 -7.26811270e+00 -7.26479631e+00  1.25175185e+02  1.25226977e+02  1.25252281e+02  1.25197960e+02 -7.01609407e+00 -7.01609408e+00 -4.21331729e+00 -4.21331729e+00 -9.16658452e+00 -9.16658452e+00 -6.20295525e+01 -6.20295525e+01 -1.24564319e+02 -1.24564319e+02 -9.65056108e+01 -9.65056108e+01 -9.15947262e+00 -9.15947262e+00 -4.21304110e+00 -4.21304109e+00 -9.64880257e+01 -9.64880257e+01 -1.24566808e+02 -1.24566808e+02 -7.01512834e+00 -7.01512834e+00 -6.20308117e+01 -6.20308116e+01 
 1.21600000e+11 -7.27224140e+00 -7.27762257e+00 -7.27764697e+00 -7.27432178e+00  1.25092711e+02  1.25144534e+02  1.25169891e+02  1.25115523e+02 -7.01192637e+00 -7.01192637e+00 -4.20989414e+00 -4.20989414e+00 -9.17271193e+00 -9.17271193e+00 -6.20592934e+01 -6.20592934e+01 -1.24662172e+02 -1.24662172e+02 -9.65792472e+01 -9.65792473e+01 -9.16558650e+00 -9.16558650e+00 -4.20961785e+00 -4.20961785e+00 -9.65616913e+01 -9.65616912e+01 -1.24664669e+02 -1.24664669e+02 -7.01096163e+00 -7.01096162e+00 -6.20605653e+01 -6.20605653e+01 
 1.21680000e+11 -7.28179545e+00 -7.28719325e+00 -7.28721611e+00 -7.28388208e+00  1.25010142e+02  1.25061996e+02  1.25087405e+02  1.25032991e+02 -7.00774513e+00 -7.00774513e+00 -4.20647206e+00 -4.20647206e+00 -9.17886097e+00 -9.17886097e+00 -6.20891108e+01 -6.20891108e+01 -1.24760083e+02 -1.24760083e+02 -9.66529048e+01 -9.66529048e+01 -9.17172198e+00 -9.17172198e+00 -4.20619568e+00 -4.20619567e+00 -9.66353781e+01 -9.66353780e+01 -1.24762587e+02 -1.24762587e+02 -7.00678139e+00 -7.00678138e+00 -6.20903955e+01 -6.20903955e+01 
 1.21760000e+11 -7.29138445e+00 -7.29679893e+00 -7.29682025e+00 -7.29347735e+00  1.24927478e+02  1.24979362e+02  1.25004824e+02  1.24950364e+02 -7.00355038e+00 -7.00355039e+00 -4.20305108e+00 -4.20305108e+00 -9.18503173e+00 -9.18503173e+00 -6.21190053e+01 -6.21190053e+01 -1.24858051e+02 -1.24858051e+02 -9.67265832e+01 -9.67265832e+01 -9.17787914e+00 -9.17787914e+00 -4.20277461e+00 -4.20277460e+00 -9.67090859e+01 -9.67090859e+01 -1.24860562e+02 -1.24860562e+02 -7.00258765e+00 -7.00258765e+00 -6.21203028e+01 -6.21203028e+01 
 1.21840000e+11 -7.30100850e+00 -7.30643975e+00 -7.30645951e+00 -7.30310771e+00  1.24844718e+02  1.24896633e+02  1.24922148e+02  1.24867642e+02 -6.99934217e+00 -6.99934217e+00 -4.19963123e+00 -4.19963123e+00 -9.19122430e+00 -9.19122430e+00 -6.21489773e+01 -6.21489773e+01 -1.24956075e+02 -1.24956075e+02 -9.68002822e+01 -9.68002822e+01 -9.18405807e+00 -9.18405808e+00 -4.19935466e+00 -4.19935466e+00 -9.67828146e+01 -9.67828146e+01 -1.24958594e+02 -1.24958594e+02 -6.99838045e+00 -6.99838045e+00 -6.21502875e+01 -6.21502875e+01 
 1.21920000e+11 -7.31066774e+00 -7.31611582e+00 -7.31613403e+00 -7.31277328e+00  1.24761863e+02  1.24813809e+02  1.24839376e+02  1.24784824e+02 -6.99512051e+00 -6.99512051e+00 -4.19621253e+00 -4.19621253e+00 -9.19743879e+00 -9.19743879e+00 -6.21790273e+01 -6.21790273e+01 -1.25054156e+02 -1.25054156e+02 -9.68740015e+01 -9.68740015e+01 -9.19025889e+00 -9.19025889e+00 -4.19593587e+00 -4.19593587e+00 -9.68565638e+01 -9.68565638e+01 -1.25056682e+02 -1.25056682e+02 -6.99415982e+00 -6.99415981e+00 -6.21803502e+01 -6.21803501e+01 
 1.22000000e+11 -7.32036229e+00 -7.32582728e+00 -7.32584391e+00 -7.32247419e+00  1.24678912e+02  1.24730888e+02  1.24756509e+02  1.24701910e+02 -6.99088543e+00 -6.99088543e+00 -4.19279500e+00 -4.19279500e+00 -9.20367528e+00 -9.20367528e+00 -6.22091556e+01 -6.22091556e+01 -1.25152294e+02 -1.25152294e+02 -9.69477410e+01 -9.69477410e+01 -9.19648167e+00 -9.19648168e+00 -4.19251826e+00 -4.19251825e+00 -9.69303332e+01 -9.69303332e+01 -1.25154828e+02 -1.25154828e+02 -6.98992577e+00 -6.98992577e+00 -6.22104912e+01 -6.22104912e+01 
 1.22080000e+11 -7.33009227e+00 -7.33557424e+00 -7.33558929e+00 -7.33221055e+00  1.24595865e+02  1.24647872e+02  1.24673545e+02  1.24618901e+02 -6.98663697e+00 -6.98663697e+00 -4.18937868e+00 -4.18937868e+00 -9.20993387e+00 -9.20993387e+00 -6.22393629e+01 -6.22393629e+01 -1.25250489e+02 -1.25250489e+02 -9.70215002e+01 -9.70215002e+01 -9.20272653e+00 -9.20272653e+00 -4.18910185e+00 -4.18910185e+00 -9.70041227e+01 -9.70041227e+01 -1.25253031e+02 -1.25253031e+02 -6.98567835e+00 -6.98567834e+00 -6.22407111e+01 -6.22407111e+01 
 1.22160000e+11 -7.33985782e+00 -7.34535683e+00 -7.34537029e+00 -7.34198250e+00  1.24512721e+02  1.24564759e+02  1.24590486e+02  1.24535795e+02 -6.98237516e+00 -6.98237516e+00 -4.18596359e+00 -4.18596359e+00 -9.21621466e+00 -9.21621466e+00 -6.22696495e+01 -6.22696495e+01 -1.25348741e+02 -1.25348741e+02 -9.70952790e+01 -9.70952790e+01 -9.20899354e+00 -9.20899355e+00 -4.18568667e+00 -4.18568667e+00 -9.70779319e+01 -9.70779318e+01 -1.25351290e+02 -1.25351290e+02 -6.98141758e+00 -6.98141758e+00 -6.22710104e+01 -6.22710104e+01 
 1.22240000e+11 -7.34965904e+00 -7.35517518e+00 -7.35518704e+00 -7.35179017e+00  1.24429482e+02  1.24481550e+02  1.24507331e+02  1.24452594e+02 -6.97810002e+00 -6.97810002e+00 -4.18254975e+00 -4.18254975e+00 -9.22251774e+00 -9.22251774e+00 -6.23000158e+01 -6.23000159e+01 -1.25447050e+02 -1.25447050e+02 -9.71690770e+01 -9.71690770e+01 -9.21528282e+00 -9.21528282e+00 -4.18227275e+00 -4.18227275e+00 -9.71517605e+01 -9.71517605e+01 -1.25449606e+02 -1.25449607e+02 -6.97714350e+00 -6.97714350e+00 -6.23013894e+01 -6.23013894e+01 
 1.22320000e+11 -7.35949608e+00 -7.36502941e+00 -7.36503966e+00 -7.36163367e+00  1.24346146e+02  1.24398245e+02  1.24424080e+02  1.24369296e+02 -6.97381159e+00 -6.97381160e+00 -4.17913720e+00 -4.17913720e+00 -9.22884322e+00 -9.22884322e+00 -6.23304625e+01 -6.23304625e+01 -1.25545416e+02 -1.25545416e+02 -9.72428940e+01 -9.72428940e+01 -9.22159446e+00 -9.22159446e+00 -4.17886012e+00 -4.17886012e+00 -9.72256083e+01 -9.72256083e+01 -1.25547980e+02 -1.25547980e+02 -6.97285613e+00 -6.97285613e+00 -6.23318486e+01 -6.23318486e+01 
 1.22400000e+11 -7.36936905e+00 -7.37491966e+00 -7.37492829e+00 -7.37151314e+00  1.24262714e+02  1.24314843e+02  1.24340732e+02  1.24285902e+02 -6.96950991e+00 -6.96950991e+00 -4.17572595e+00 -4.17572596e+00 -9.23519119e+00 -9.23519119e+00 -6.23609898e+01 -6.23609899e+01 -1.25643839e+02 -1.25643839e+02 -9.73167297e+01 -9.73167297e+01 -9.22792855e+00 -9.22792855e+00 -4.17544880e+00 -4.17544879e+00 -9.72994750e+01 -9.72994750e+01 -1.25646411e+02 -1.25646411e+02 -6.96855552e+00 -6.96855551e+00 -6.23623885e+01 -6.23623885e+01 
 1.22480000e+11 -7.37927810e+00 -7.38484604e+00 -7.38485305e+00 -7.38142871e+00  1.24179184e+02  1.24231345e+02  1.24257287e+02  1.24202411e+02 -6.96519500e+00 -6.96519500e+00 -4.17231604e+00 -4.17231605e+00 -9.24156175e+00 -9.24156174e+00 -6.23915984e+01 -6.23915984e+01 -1.25742319e+02 -1.25742319e+02 -9.73905838e+01 -9.73905838e+01 -9.23428519e+00 -9.23428520e+00 -4.17203881e+00 -4.17203881e+00 -9.73733603e+01 -9.73733603e+01 -1.25744898e+02 -1.25744898e+02 -6.96424168e+00 -6.96424168e+00 -6.23930096e+01 -6.23930096e+01 
 1.22560000e+11 -7.38922333e+00 -7.39480870e+00 -7.39481406e+00 -7.39138049e+00  1.24095559e+02  1.24147749e+02  1.24173746e+02  1.24118823e+02 -6.96086690e+00 -6.96086690e+00 -4.16890749e+00 -4.16890750e+00 -9.24795499e+00 -9.24795499e+00 -6.24222885e+01 -6.24222886e+01 -1.25840857e+02 -1.25840857e+02 -9.74644561e+01 -9.74644561e+01 -9.24066449e+00 -9.24066449e+00 -4.16863018e+00 -4.16863018e+00 -9.74472639e+01 -9.74472639e+01 -1.25843443e+02 -1.25843443e+02 -6.95991466e+00 -6.95991466e+00 -6.24237123e+01 -6.24237123e+01 
 1.22640000e+11 -7.39920489e+00 -7.40480775e+00 -7.40481147e+00 -7.40136863e+00  1.24011836e+02  1.24064057e+02  1.24090108e+02  1.24035139e+02 -6.95652563e+00 -6.95652564e+00 -4.16550033e+00 -4.16550034e+00 -9.25437102e+00 -9.25437102e+00 -6.24530608e+01 -6.24530608e+01 -1.25939451e+02 -1.25939451e+02 -9.75383461e+01 -9.75383461e+01 -9.24706654e+00 -9.24706654e+00 -4.16522295e+00 -4.16522295e+00 -9.75211855e+01 -9.75211855e+01 -1.25942045e+02 -1.25942045e+02 -6.95557449e+00 -6.95557449e+00 -6.24544971e+01 -6.24544971e+01 
 1.22720000e+11 -7.40922290e+00 -7.41484333e+00 -7.41484539e+00 -7.41139324e+00  1.23928016e+02  1.23980268e+02  1.24006373e+02  1.23951357e+02 -6.95217124e+00 -6.95217125e+00 -4.16209459e+00 -4.16209459e+00 -9.26080993e+00 -9.26080993e+00 -6.24839156e+01 -6.24839156e+01 -1.26038102e+02 -1.26038102e+02 -9.76122537e+01 -9.76122537e+01 -9.25349143e+00 -9.25349143e+00 -4.16181713e+00 -4.16181713e+00 -9.75951249e+01 -9.75951249e+01 -1.26040704e+02 -1.26040704e+02 -6.95122120e+00 -6.95122119e+00 -6.24853643e+01 -6.24853643e+01 
 1.22800000e+11 -7.41927749e+00 -7.42491557e+00 -7.42491596e+00 -7.42145447e+00  1.23844098e+02  1.23896381e+02  1.23922541e+02  1.23867479e+02 -6.94780376e+00 -6.94780377e+00 -4.15869028e+00 -4.15869028e+00 -9.26727183e+00 -9.26727183e+00 -6.25148534e+01 -6.25148534e+01 -1.26136811e+02 -1.26136811e+02 -9.76861786e+01 -9.76861786e+01 -9.25993928e+00 -9.25993928e+00 -4.15841276e+00 -4.15841276e+00 -9.76690817e+01 -9.76690817e+01 -1.26139420e+02 -1.26139420e+02 -6.94685482e+00 -6.94685482e+00 -6.25163146e+01 -6.25163146e+01 
