 frequency       s11_db          s22_db          s12_db          s21_db          s11_deg         s22_deg         s12_deg         s21_deg        
 1.20000000e+11 -1.87688268e+01 -6.22893744e+00 -3.42616559e+00 -3.42616559e+00  1.00248809e+02  1.85469913e+01 -6.76769694e+01 -6.76769694e+01 
 1.20080000e+11 -1.87856151e+01 -6.22811867e+00 -3.42595874e+00 -3.42595874e+00  1.00177269e+02  1.84942392e+01 -6.77241124e+01 -6.77241124e+01 
 1.20160000e+11 -1.88024411e+01 -6.22730226e+00 -3.42575226e+00 -3.42575226e+00  1.00105626e+02  1.84415116e+01 -6.77712583e+01 -6.77712583e+01 
 1.20240000e+11 -1.88193048e+01 -6.22648821e+00 -3.42554616e+00 -3.42554616e+00  1.00033879e+02  1.83888083e+01 -6.78184070e+01 -6.78184070e+01 
 1.20320000e+11 -1.88362064e+01 -6.22567650e+00 -3.42534044e+00 -3.42534044e+00  9.99620269e+01  1.83361294e+01 -6.78655586e+01 -6.78655586e+01 
 1.20400000e+11 -1.88531460e+01 -6.22486714e+00 -3.42513510e+00 -3.42513510e+00  9.98900701e+01  1.82834749e+01 -6.79127130e+01 -6.79127130e+01 
 1.20480000e+11 -1.88701238e+01 -6.22406012e+00 -3.42493013e+00 -3.42493013e+00  9.98180074e+01  1.82308446e+01 -6.79598704e+01 -6.79598704e+01 
 1.20560000e+11 -1.88871399e+01 -6.22325544e+00 -3.42472555e+00 -3.42472555e+00  9.97458383e+01  1.81782384e+01 -6.80070306e+01 -6.80070306e+01 
 1.20640000e+11 -1.89041945e+01 -6.22245308e+00 -3.42452134e+00 -3.42452134e+00  9.96735621e+01  1.81256565e+01 -6.80541936e+01 -6.80541936e+01 
 1.20720000e+11 -1.89212877e+01 -6.22165305e+00 -3.42431752e+00 -3.42431752e+00  9.96011782e+01  1.80730986e+01 -6.81013595e+01 -6.81013595e+01 
 1.20800000e+11 -1.89384196e+01 -6.22085534e+00 -3.42411408e+00 -3.42411408e+00  9.95286859e+01  1.80205647e+01 -6.81485282e+01 -6.81485282e+01 
 1.20880000e+11 -1.89555904e+01 -6.22005994e+00 -3.42391102e+00 -3.42391102e+00  9.94560845e+01  1.79680548e+01 -6.81956997e+01 -6.81956997e+01 
 1.20960000e+11 -1.89728002e+01 -6.21926686e+00 -3.42370835e+00 -3.42370835e+00  9.93833734e+01  1.79155688e+01 -6.82428741e+01 -6.82428741e+01 
 1.21040000e+11 -1.89900492e+01 -6.21847608e+00 -3.42350606e+00 -3.42350606e+00  9.93105519e+01  1.78631067e+01 -6.82900513e+01 -6.82900513e+01 
 1.21120000e+11 -1.90073374e+01 -6.21768760e+00 -3.42330416e+00 -3.42330416e+00  9.92376193e+01  1.78106684e+01 -6.83372314e+01 -6.83372314e+01 
 1.21200000e+11 -1.90246652e+01 -6.21690142e+00 -3.42310264e+00 -3.42310264e+00  9.91645751e+01  1.77582539e+01 -6.83844142e+01 -6.83844142e+01 
 1.21280000e+11 -1.90420325e+01 -6.21611753e+00 -3.42290151e+00 -3.42290151e+00  9.90914183e+01  1.77058630e+01 -6.84315999e+01 -6.84315999e+01 
 1.21360000e+11 -1.90594396e+01 -6.21533592e+00 -3.42270077e+00 -3.42270077e+00  9.90181485e+01  1.76534958e+01 -6.84787883e+01 -6.84787883e+01 
 1.21440000e+11 -1.90768866e+01 -6.21455660e+00 -3.42250042e+00 -3.42250042e+00  9.89447649e+01  1.76011521e+01 -6.85259796e+01 -6.85259796e+01 
 1.21520000e+11 -1.90943736e+01 -6.21377955e+00 -3.42230045e+00 -3.42230045e+00  9.88712667e+01  1.75488320e+01 -6.85731736e+01 -6.85731737e+01 
 1.21600000e+11 -1.91119008e+01 -6.21300478e+00 -3.42210088e+00 -3.42210088e+00  9.87976533e+01  1.74965354e+01 -6.86203705e+01 -6.86203705e+01 
 1.21680000e+11 -1.91294684e+01 -6.21223227e+00 -3.42190169e+00 -3.42190169e+00  9.87239240e+01  1.74442622e+01 -6.86675701e+01 -6.86675701e+01 
 1.21760000e+11 -1.91470765e+01 -6.21146203e+00 -3.42170290e+00 -3.42170290e+00  9.86500780e+01  1.73920123e+01 -6.87147726e+01 -6.87147726e+01 
 1.21840000e+11 -1.91647252e+01 -6.21069404e+00 -3.42150450e+00 -3.42150450e+00  9.85761147e+01  1.73397857e+01 -6.87619778e+01 -6.87619778e+01 
 1.21920000e+11 -1.91824147e+01 -6.20992831e+00 -3.42130649e+00 -3.42130649e+00  9.85020332e+01  1.72875824e+01 -6.88091857e+01 -6.88091857e+01 
 1.22000000e+11 -1.92001451e+01 -6.20916483e+00 -3.42110888e+00 -3.42110888e+00  9.84278328e+01  1.72354023e+01 -6.88563965e+01 -6.88563965e+01 
 1.22080000e+11 -1.92179167e+01 -6.20840359e+00 -3.42091166e+00 -3.42091166e+00  9.83535129e+01  1.71832453e+01 -6.89036099e+01 -6.89036099e+01 
 1.22160000e+11 -1.92357295e+01 -6.20764459e+00 -3.42071484e+00 -3.42071484e+00  9.82790726e+01  1.71311115e+01 -6.89508262e+01 -6.89508262e+01 
 1.22240000e+11 -1.92535838e+01 -6.20688782e+00 -3.42051841e+00 -3.42051841e+00  9.82045112e+01  1.70790006e+01 -6.89980452e+01 -6.89980452e+01 
 1.22320000e+11 -1.92714796e+01 -6.20613328e+00 -3.42032238e+00 -3.42032238e+00  9.81298279e+01  1.70269127e+01 -6.90452669e+01 -6.90452669e+01 
 1.22400000e+11 -1.92894171e+01 -6.20538097e+00 -3.42012675e+00 -3.42012675e+00  9.80550220e+01  1.69748477e+01 -6.90924914e+01 -6.90924914e+01 
 1.22480000e+11 -1.93073966e+01 -6.20463088e+00 -3.41993151e+00 -3.41993151e+00  9.79800926e+01  1.69228056e+01 -6.91397186e+01 -6.91397186e+01 
 1.22560000e+11 -1.93254181e+01 -6.20388301e+00 -3.41973668e+00 -3.41973668e+00  9.79050390e+01  1.68707863e+01 -6.91869486e+01 -6.91869486e+01 
 1.22640000e+11 -1.93434818e+01 -6.20313734e+00 -3.41954224e+00 -3.41954224e+00  9.78298605e+01  1.68187898e+01 -6.92341812e+01 -6.92341812e+01 
 1.22720000e+11 -1.93615879e+01 -6.20239389e+00 -3.41934820e+00 -3.41934820e+00  9.77545561e+01  1.67668159e+01 -6.92814166e+01 -6.92814166e+01 
 1.22800000e+11 -1.93797365e+01 -6.20165263e+00 -3.41915457e+00 -3.41915457e+00  9.76791251e+01  1.67148647e+01 -6.93286547e+01 -6.93286547e+01 
 1.22880000e+11 -1.93979278e+01 -6.20091358e+00 -3.41896134e+00 -3.41896134e+00  9.76035668e+01  1.66629361e+01 -6.93758956e+01 -6.93758956e+01 
 1.22960000e+11 -1.94161619e+01 -6.20017671e+00 -3.41876851e+00 -3.41876851e+00  9.75278801e+01  1.66110300e+01 -6.94231391e+01 -6.94231391e+01 
 1.23040000e+11 -1.94344391e+01 -6.19944204e+00 -3.41857608e+00 -3.41857608e+00  9.74520645e+01  1.65591464e+01 -6.94703853e+01 -6.94703853e+01 
 1.23120000e+11 -1.94527595e+01 -6.19870955e+00 -3.41838406e+00 -3.41838406e+00  9.73761189e+01  1.65072852e+01 -6.95176342e+01 -6.95176342e+01 
 1.23200000e+11 -1.94711232e+01 -6.19797924e+00 -3.41819245e+00 -3.41819245e+00  9.73000426e+01  1.64554464e+01 -6.95648858e+01 -6.95648858e+01 
 1.23280000e+11 -1.94895305e+01 -6.19725111e+00 -3.41800124e+00 -3.41800124e+00  9.72238348e+01  1.64036299e+01 -6.96121401e+01 -6.96121401e+01 
 1.23360000e+11 -1.95079814e+01 -6.19652514e+00 -3.41781043e+00 -3.41781043e+00  9.71474945e+01  1.63518356e+01 -6.96593970e+01 -6.96593970e+01 
 1.23440000e+11 -1.95264762e+01 -6.19580134e+00 -3.41762003e+00 -3.41762003e+00  9.70710209e+01  1.63000635e+01 -6.97066567e+01 -6.97066567e+01 
 1.23520000e+11 -1.95450150e+01 -6.19507971e+00 -3.41743004e+00 -3.41743004e+00  9.69944131e+01  1.62483136e+01 -6.97539190e+01 -6.97539190e+01 
 1.23600000e+11 -1.95635981e+01 -6.19436023e+00 -3.41724046e+00 -3.41724046e+00  9.69176704e+01  1.61965858e+01 -6.98011839e+01 -6.98011839e+01 
 1.23680000e+11 -1.95822255e+01 -6.19364290e+00 -3.41705129e+00 -3.41705129e+00  9.68407916e+01  1.61448800e+01 -6.98484515e+01 -6.98484515e+01 
 1.23760000e+11 -1.96008975e+01 -6.19292773e+00 -3.41686253e+00 -3.41686253e+00  9.67637761e+01  1.60931962e+01 -6.98957218e+01 -6.98957218e+01 
 1.23840000e+11 -1.96196142e+01 -6.19221469e+00 -3.41667418e+00 -3.41667418e+00  9.66866229e+01  1.60415343e+01 -6.99429947e+01 -6.99429947e+01 
 1.23920000e+11 -1.96383757e+01 -6.19150380e+00 -3.41648624e+00 -3.41648624e+00  9.66093310e+01  1.59898943e+01 -6.99902703e+01 -6.99902703e+01 
 1.24000000e+11 -1.96571824e+01 -6.19079504e+00 -3.41629871e+00 -3.41629871e+00  9.65318996e+01  1.59382761e+01 -7.00375485e+01 -7.00375485e+01 
 1.24080000e+11 -1.96760343e+01 -6.19008842e+00 -3.41611160e+00 -3.41611160e+00  9.64543277e+01  1.58866797e+01 -7.00848293e+01 -7.00848293e+01 
 1.24160000e+11 -1.96949316e+01 -6.18938392e+00 -3.41592490e+00 -3.41592490e+00  9.63766144e+01  1.58351050e+01 -7.01321127e+01 -7.01321127e+01 
 1.24240000e+11 -1.97138746e+01 -6.18868154e+00 -3.41573861e+00 -3.41573861e+00  9.62987587e+01  1.57835519e+01 -7.01793988e+01 -7.01793988e+01 
 1.24320000e+11 -1.97328633e+01 -6.18798128e+00 -3.41555274e+00 -3.41555274e+00  9.62207598e+01  1.57320204e+01 -7.02266875e+01 -7.02266875e+01 
 1.24400000e+11 -1.97518980e+01 -6.18728313e+00 -3.41536728e+00 -3.41536728e+00  9.61426166e+01  1.56805105e+01 -7.02739788e+01 -7.02739788e+01 
 1.24480000e+11 -1.97709788e+01 -6.18658710e+00 -3.41518224e+00 -3.41518224e+00  9.60643282e+01  1.56290220e+01 -7.03212727e+01 -7.03212727e+01 
 1.24560000e+11 -1.97901060e+01 -6.18589316e+00 -3.41499762e+00 -3.41499762e+00  9.59858936e+01  1.55775550e+01 -7.03685692e+01 -7.03685692e+01 
 1.24640000e+11 -1.98092797e+01 -6.18520133e+00 -3.41481341e+00 -3.41481341e+00  9.59073118e+01  1.55261094e+01 -7.04158682e+01 -7.04158682e+01 
 1.24720000e+11 -1.98285001e+01 -6.18451160e+00 -3.41462963e+00 -3.41462963e+00  9.58285818e+01  1.54746851e+01 -7.04631699e+01 -7.04631699e+01 
 1.24800000e+11 -1.98477673e+01 -6.18382396e+00 -3.41444626e+00 -3.41444626e+00  9.57497027e+01  1.54232820e+01 -7.05104742e+01 -7.05104742e+01 
 1.24880000e+11 -1.98670817e+01 -6.18313840e+00 -3.41426331e+00 -3.41426331e+00  9.56706734e+01  1.53719002e+01 -7.05577810e+01 -7.05577810e+01 
 1.24960000e+11 -1.98864433e+01 -6.18245493e+00 -3.41408078e+00 -3.41408078e+00  9.55914929e+01  1.53205395e+01 -7.06050904e+01 -7.06050904e+01 
 1.25040000e+11 -1.99058524e+01 -6.18177354e+00 -3.41389868e+00 -3.41389868e+00  9.55121601e+01  1.52692000e+01 -7.06524024e+01 -7.06524024e+01 
 1.25120000e+11 -1.99253091e+01 -6.18109423e+00 -3.41371699e+00 -3.41371699e+00  9.54326740e+01  1.52178814e+01 -7.06997169e+01 -7.06997169e+01 
 1.25200000e+11 -1.99448136e+01 -6.18041699e+00 -3.41353573e+00 -3.41353573e+00  9.53530337e+01  1.51665839e+01 -7.07470340e+01 -7.07470340e+01 
 1.25280000e+11 -1.99643662e+01 -6.17974181e+00 -3.41335489e+00 -3.41335489e+00  9.52732379e+01  1.51153073e+01 -7.07943536e+01 -7.07943536e+01 
 1.25360000e+11 -1.99839670e+01 -6.17906870e+00 -3.41317448e+00 -3.41317448e+00  9.51932857e+01  1.50640516e+01 -7.08416758e+01 -7.08416758e+01 
 1.25440000e+11 -2.00036162e+01 -6.17839764e+00 -3.41299449e+00 -3.41299449e+00  9.51131759e+01  1.50128168e+01 -7.08890006e+01 -7.08890006e+01 
 1.25520000e+11 -2.00233140e+01 -6.17772864e+00 -3.41281492e+00 -3.41281492e+00  9.50329076e+01  1.49616027e+01 -7.09363278e+01 -7.09363278e+01 
 1.25600000e+11 -2.00430606e+01 -6.17706169e+00 -3.41263579e+00 -3.41263579e+00  9.49524795e+01  1.49104093e+01 -7.09836576e+01 -7.09836576e+01 
 1.25680000e+11 -2.00628562e+01 -6.17639679e+00 -3.41245707e+00 -3.41245707e+00  9.48718906e+01  1.48592366e+01 -7.10309899e+01 -7.10309899e+01 
 1.25760000e+11 -2.00827011e+01 -6.17573393e+00 -3.41227879e+00 -3.41227879e+00  9.47911397e+01  1.48080846e+01 -7.10783247e+01 -7.10783247e+01 
 1.25840000e+11 -2.01025953e+01 -6.17507310e+00 -3.41210093e+00 -3.41210093e+00  9.47102258e+01  1.47569530e+01 -7.11256621e+01 -7.11256621e+01 
 1.25920000e+11 -2.01225391e+01 -6.17441432e+00 -3.41192350e+00 -3.41192350e+00  9.46291477e+01  1.47058420e+01 -7.11730019e+01 -7.11730019e+01 
 1.26000000e+11 -2.01425328e+01 -6.17375756e+00 -3.41174650e+00 -3.41174650e+00  9.45479041e+01  1.46547514e+01 -7.12203443e+01 -7.12203443e+01 
 1.26080000e+11 -2.01625764e+01 -6.17310282e+00 -3.41156994e+00 -3.41156994e+00  9.44664941e+01  1.46036813e+01 -7.12676891e+01 -7.12676891e+01 
 1.26160000e+11 -2.01826703e+01 -6.17245011e+00 -3.41139380e+00 -3.41139380e+00  9.43849164e+01  1.45526315e+01 -7.13150364e+01 -7.13150364e+01 
 1.26240000e+11 -2.02028146e+01 -6.17179942e+00 -3.41121809e+00 -3.41121809e+00  9.43031698e+01  1.45016019e+01 -7.13623863e+01 -7.13623863e+01 
 1.26320000e+11 -2.02230095e+01 -6.17115074e+00 -3.41104281e+00 -3.41104281e+00  9.42212531e+01  1.44505926e+01 -7.14097386e+01 -7.14097386e+01 
 1.26400000e+11 -2.02432553e+01 -6.17050407e+00 -3.41086797e+00 -3.41086797e+00  9.41391651e+01  1.43996035e+01 -7.14570933e+01 -7.14570933e+01 
 1.26480000e+11 -2.02635521e+01 -6.16985941e+00 -3.41069356e+00 -3.41069356e+00  9.40569047e+01  1.43486345e+01 -7.15044506e+01 -7.15044506e+01 
 1.26560000e+11 -2.02839002e+01 -6.16921675e+00 -3.41051958e+00 -3.41051958e+00  9.39744705e+01  1.42976856e+01 -7.15518103e+01 -7.15518103e+01 
 1.26640000e+11 -2.03042997e+01 -6.16857608e+00 -3.41034604e+00 -3.41034604e+00  9.38918613e+01  1.42467566e+01 -7.15991724e+01 -7.15991724e+01 
 1.26720000e+11 -2.03247509e+01 -6.16793742e+00 -3.41017294e+00 -3.41017294e+00  9.38090760e+01  1.41958477e+01 -7.16465371e+01 -7.16465371e+01 
 1.26800000e+11 -2.03452540e+01 -6.16730074e+00 -3.41000027e+00 -3.41000027e+00  9.37261131e+01  1.41449586e+01 -7.16939041e+01 -7.16939041e+01 
 1.26880000e+11 -2.03658093e+01 -6.16666604e+00 -3.40982803e+00 -3.40982803e+00  9.36429715e+01  1.40940895e+01 -7.17412736e+01 -7.17412736e+01 
 1.26960000e+11 -2.03864168e+01 -6.16603333e+00 -3.40965623e+00 -3.40965623e+00  9.35596499e+01  1.40432401e+01 -7.17886456e+01 -7.17886456e+01 
 1.27040000e+11 -2.04070770e+01 -6.16540260e+00 -3.40948488e+00 -3.40948488e+00  9.34761469e+01  1.39924104e+01 -7.18360199e+01 -7.18360199e+01 
 1.27120000e+11 -2.04277898e+01 -6.16477384e+00 -3.40931395e+00 -3.40931395e+00  9.33924613e+01  1.39416005e+01 -7.18833967e+01 -7.18833967e+01 
 1.27200000e+11 -2.04485557e+01 -6.16414706e+00 -3.40914347e+00 -3.40914347e+00  9.33085917e+01  1.38908101e+01 -7.19307759e+01 -7.19307759e+01 
 1.27280000e+11 -2.04693748e+01 -6.16352224e+00 -3.40897343e+00 -3.40897343e+00  9.32245367e+01  1.38400394e+01 -7.19781576e+01 -7.19781576e+01 
 1.27360000e+11 -2.04902473e+01 -6.16289938e+00 -3.40880383e+00 -3.40880383e+00  9.31402951e+01  1.37892882e+01 -7.20255416e+01 -7.20255416e+01 
 1.27440000e+11 -2.05111735e+01 -6.16227848e+00 -3.40863467e+00 -3.40863467e+00  9.30558655e+01  1.37385565e+01 -7.20729280e+01 -7.20729280e+01 
 1.27520000e+11 -2.05321535e+01 -6.16165954e+00 -3.40846595e+00 -3.40846595e+00  9.29712464e+01  1.36878442e+01 -7.21203169e+01 -7.21203169e+01 
 1.27600000e+11 -2.05531877e+01 -6.16104255e+00 -3.40829767e+00 -3.40829767e+00  9.28864366e+01  1.36371512e+01 -7.21677081e+01 -7.21677081e+01 
 1.27680000e+11 -2.05742762e+01 -6.16042750e+00 -3.40812983e+00 -3.40812983e+00  9.28014345e+01  1.35864776e+01 -7.22151017e+01 -7.22151017e+01 
 1.27760000e+11 -2.05954193e+01 -6.15981440e+00 -3.40796244e+00 -3.40796244e+00  9.27162388e+01  1.35358232e+01 -7.22624977e+01 -7.22624977e+01 
 1.27840000e+11 -2.06166172e+01 -6.15920324e+00 -3.40779549e+00 -3.40779549e+00  9.26308481e+01  1.34851881e+01 -7.23098961e+01 -7.23098961e+01 
 1.27920000e+11 -2.06378701e+01 -6.15859402e+00 -3.40762899e+00 -3.40762899e+00  9.25452608e+01  1.34345721e+01 -7.23572968e+01 -7.23572968e+01 
 1.28000000e+11 -2.06591782e+01 -6.15798673e+00 -3.40746293e+00 -3.40746293e+00  9.24594756e+01  1.33839751e+01 -7.24046999e+01 -7.24046999e+01 
 1.28080000e+11 -2.06805419e+01 -6.15738137e+00 -3.40729732e+00 -3.40729732e+00  9.23734910e+01  1.33333973e+01 -7.24521054e+01 -7.24521054e+01 
 1.28160000e+11 -2.07019613e+01 -6.15677793e+00 -3.40713215e+00 -3.40713215e+00  9.22873054e+01  1.32828384e+01 -7.24995132e+01 -7.24995132e+01 
 1.28240000e+11 -2.07234367e+01 -6.15617642e+00 -3.40696743e+00 -3.40696743e+00  9.22009174e+01  1.32322984e+01 -7.25469233e+01 -7.25469233e+01 
 1.28320000e+11 -2.07449683e+01 -6.15557682e+00 -3.40680316e+00 -3.40680316e+00  9.21143255e+01  1.31817774e+01 -7.25943358e+01 -7.25943358e+01 
 1.28400000e+11 -2.07665564e+01 -6.15497914e+00 -3.40663934e+00 -3.40663934e+00  9.20275280e+01  1.31312751e+01 -7.26417507e+01 -7.26417507e+01 
 1.28480000e+11 -2.07882011e+01 -6.15438336e+00 -3.40647597e+00 -3.40647597e+00  9.19405235e+01  1.30807917e+01 -7.26891678e+01 -7.26891678e+01 
 1.28560000e+11 -2.08099028e+01 -6.15378950e+00 -3.40631304e+00 -3.40631304e+00  9.18533105e+01  1.30303269e+01 -7.27365873e+01 -7.27365873e+01 
 1.28640000e+11 -2.08316617e+01 -6.15319754e+00 -3.40615057e+00 -3.40615057e+00  9.17658872e+01  1.29798809e+01 -7.27840091e+01 -7.27840091e+01 
 1.28720000e+11 -2.08534780e+01 -6.15260747e+00 -3.40598854e+00 -3.40598854e+00  9.16782522e+01  1.29294534e+01 -7.28314332e+01 -7.28314332e+01 
 1.28800000e+11 -2.08753520e+01 -6.15201930e+00 -3.40582697e+00 -3.40582697e+00  9.15904038e+01  1.28790445e+01 -7.28788597e+01 -7.28788597e+01 
 1.28880000e+11 -2.08972839e+01 -6.15143303e+00 -3.40566585e+00 -3.40566585e+00  9.15023404e+01  1.28286541e+01 -7.29262884e+01 -7.29262884e+01 
 1.28960000e+11 -2.09192740e+01 -6.15084864e+00 -3.40550518e+00 -3.40550518e+00  9.14140603e+01  1.27782822e+01 -7.29737194e+01 -7.29737194e+01 
 1.29040000e+11 -2.09413225e+01 -6.15026614e+00 -3.40534497e+00 -3.40534497e+00  9.13255619e+01  1.27279286e+01 -7.30211527e+01 -7.30211527e+01 
 1.29120000e+11 -2.09634297e+01 -6.14968552e+00 -3.40518520e+00 -3.40518520e+00  9.12368434e+01  1.26775934e+01 -7.30685883e+01 -7.30685883e+01 
 1.29200000e+11 -2.09855958e+01 -6.14910678e+00 -3.40502590e+00 -3.40502590e+00  9.11479033e+01  1.26272765e+01 -7.31160262e+01 -7.31160262e+01 
 1.29280000e+11 -2.10078211e+01 -6.14852991e+00 -3.40486704e+00 -3.40486704e+00  9.10587398e+01  1.25769778e+01 -7.31634664e+01 -7.31634664e+01 
 1.29360000e+11 -2.10301059e+01 -6.14795492e+00 -3.40470865e+00 -3.40470865e+00  9.09693511e+01  1.25266973e+01 -7.32109088e+01 -7.32109088e+01 
 1.29440000e+11 -2.10524504e+01 -6.14738179e+00 -3.40455070e+00 -3.40455070e+00  9.08797356e+01  1.24764349e+01 -7.32583535e+01 -7.32583535e+01 
 1.29520000e+11 -2.10748549e+01 -6.14681053e+00 -3.40439322e+00 -3.40439322e+00  9.07898914e+01  1.24261907e+01 -7.33058004e+01 -7.33058004e+01 
 1.29600000e+11 -2.10973196e+01 -6.14624112e+00 -3.40423619e+00 -3.40423619e+00  9.06998167e+01  1.23759644e+01 -7.33532496e+01 -7.33532496e+01 
 1.29680000e+11 -2.11198448e+01 -6.14567357e+00 -3.40407962e+00 -3.40407962e+00  9.06095098e+01  1.23257561e+01 -7.34007010e+01 -7.34007010e+01 
 1.29760000e+11 -2.11424307e+01 -6.14510788e+00 -3.40392351e+00 -3.40392351e+00  9.05189689e+01  1.22755657e+01 -7.34481547e+01 -7.34481547e+01 
 1.29840000e+11 -2.11650777e+01 -6.14454404e+00 -3.40376786e+00 -3.40376786e+00  9.04281920e+01  1.22253932e+01 -7.34956106e+01 -7.34956106e+01 
 1.29920000e+11 -2.11877860e+01 -6.14398204e+00 -3.40361266e+00 -3.40361266e+00  9.03371774e+01  1.21752385e+01 -7.35430688e+01 -7.35430688e+01 
 1.30000000e+11 -2.12105558e+01 -6.14342189e+00 -3.40345793e+00 -3.40345793e+00  9.02459232e+01  1.21251015e+01 -7.35905291e+01 -7.35905291e+01 
 1.30080000e+11 -2.12333875e+01 -6.14286357e+00 -3.40330365e+00 -3.40330365e+00  9.01544274e+01  1.20749823e+01 -7.36379917e+01 -7.36379917e+01 
 1.30160000e+11 -2.12562813e+01 -6.14230710e+00 -3.40314984e+00 -3.40314984e+00  9.00626881e+01  1.20248807e+01 -7.36854565e+01 -7.36854565e+01 
 1.30240000e+11 -2.12792374e+01 -6.14175245e+00 -3.40299649e+00 -3.40299649e+00  8.99707035e+01  1.19747967e+01 -7.37329235e+01 -7.37329235e+01 
 1.30320000e+11 -2.13022563e+01 -6.14119964e+00 -3.40284360e+00 -3.40284360e+00  8.98784715e+01  1.19247302e+01 -7.37803927e+01 -7.37803927e+01 
 1.30400000e+11 -2.13253380e+01 -6.14064865e+00 -3.40269118e+00 -3.40269118e+00  8.97859902e+01  1.18746812e+01 -7.38278641e+01 -7.38278641e+01 
 1.30480000e+11 -2.13484830e+01 -6.14009948e+00 -3.40253921e+00 -3.40253921e+00  8.96932576e+01  1.18246496e+01 -7.38753377e+01 -7.38753377e+01 
 1.30560000e+11 -2.13716915e+01 -6.13955214e+00 -3.40238772e+00 -3.40238772e+00  8.96002716e+01  1.17746355e+01 -7.39228134e+01 -7.39228134e+01 
 1.30640000e+11 -2.13949638e+01 -6.13900661e+00 -3.40223668e+00 -3.40223668e+00  8.95070302e+01  1.17246386e+01 -7.39702914e+01 -7.39702914e+01 
 1.30720000e+11 -2.14183001e+01 -6.13846289e+00 -3.40208611e+00 -3.40208611e+00  8.94135314e+01  1.16746591e+01 -7.40177715e+01 -7.40177715e+01 
 1.30800000e+11 -2.14417008e+01 -6.13792099e+00 -3.40193601e+00 -3.40193601e+00  8.93197730e+01  1.16246967e+01 -7.40652537e+01 -7.40652537e+01 
