       frequency          s11_db          s12_db          s13_db          s21_db          s22_db          s23_db          s31_db          s32_db          s33_db         s11_deg         s12_deg         s13_deg         s21_deg         s22_deg         s23_deg         s31_deg         s32_deg         s33_deg
  1.20000000e+11 -1.87688268e+01 -3.42616559e+00 -3.42311713e+00 -3.42616559e+00 -6.22893744e+00 -6.70460835e+00 -3.42311713e+00 -6.70460835e+00 -6.23679783e+00  1.00248808e+02 -6.76769694e+01 -6.76735723e+01 -6.76769694e+01  1.85469914e+01 -1.40871629e+02 -6.76735723e+01 -1.40871629e+02  1.85242285e+01
  1.20079920e+11 -1.87855983e+01 -3.42595895e+00 -3.42290957e+00 -3.42595895e+00 -6.22811949e+00 -6.70561778e+00 -3.42290957e+00 -6.70561778e+00 -6.23598153e+00  1.00177340e+02 -6.77240653e+01 -6.77206858e+01 -6.77240653e+01  1.84942919e+01 -1.40953163e+02 -6.77206858e+01 -1.40953163e+02  1.84715099e+01
  1.20159840e+11 -1.88024074e+01 -3.42575268e+00 -3.42270239e+00 -3.42575268e+00 -6.22730389e+00 -6.70662539e+00 -3.42270239e+00 -6.70662539e+00 -6.23516757e+00  1.00105769e+02 -6.77711641e+01 -6.77678022e+01 -6.77711641e+01  1.84416169e+01 -1.41034691e+02 -6.77678022e+01 -1.41034691e+02  1.84188158e+01
  1.20239760e+11 -1.88192542e+01 -3.42554678e+00 -3.42249558e+00 -3.42554678e+00 -6.22649064e+00 -6.70763116e+00 -3.42249558e+00 -6.70763116e+00 -6.23435596e+00  1.00034094e+02 -6.78182657e+01 -6.78149215e+01 -6.78182657e+01  1.83889662e+01 -1.41116213e+02 -6.78149215e+01 -1.41116213e+02  1.83661461e+01
  1.20319680e+11 -1.88361388e+01 -3.42534126e+00 -3.42228916e+00 -3.42534127e+00 -6.22567974e+00 -6.70863510e+00 -3.42228916e+00 -6.70863510e+00 -6.23354670e+00  9.99623141e+01 -6.78653702e+01 -6.78620436e+01 -6.78653702e+01  1.83363399e+01 -1.41197729e+02 -6.78620436e+01 -1.41197729e+02  1.83135008e+01
  1.20399600e+11 -1.88530613e+01 -3.42513612e+00 -3.42208312e+00 -3.42513613e+00 -6.22487118e+00 -6.70963722e+00 -3.42208312e+00 -6.70963722e+00 -6.23273977e+00  9.98904296e+01 -6.79124775e+01 -6.79091686e+01 -6.79124775e+01  1.82837378e+01 -1.41279240e+02 -6.79091687e+01 -1.41279240e+02  1.82608797e+01
  1.20479520e+11 -1.88700219e+01 -3.42493136e+00 -3.42187746e+00 -3.42493136e+00 -6.22406495e+00 -6.71063750e+00 -3.42187746e+00 -6.71063750e+00 -6.23193517e+00  9.98184396e+01 -6.79595877e+01 -6.79562965e+01 -6.79595877e+01  1.82311600e+01 -1.41360745e+02 -6.79562965e+01 -1.41360745e+02  1.82082828e+01
  1.20559441e+11 -1.88870208e+01 -3.42472698e+00 -3.42167219e+00 -3.42472698e+00 -6.22326105e+00 -6.71163595e+00 -3.42167219e+00 -6.71163595e+00 -6.23113290e+00  9.97463433e+01 -6.80067008e+01 -6.80034273e+01 -6.80067008e+01  1.81786062e+01 -1.41442244e+02 -6.80034273e+01 -1.41442244e+02  1.81557101e+01
  1.20639361e+11 -1.89040581e+01 -3.42452298e+00 -3.42146730e+00 -3.42452298e+00 -6.22245948e+00 -6.71263257e+00 -3.42146730e+00 -6.71263257e+00 -6.23033296e+00  9.96741401e+01 -6.80538166e+01 -6.80505609e+01 -6.80538166e+01  1.81260766e+01 -1.41523737e+02 -6.80505609e+01 -1.41523737e+02  1.81031615e+01
  1.20719281e+11 -1.89211338e+01 -3.42431935e+00 -3.42126279e+00 -3.42431936e+00 -6.22166023e+00 -6.71362735e+00 -3.42126279e+00 -6.71362735e+00 -6.22953533e+00  9.96018294e+01 -6.81009354e+01 -6.80976974e+01 -6.81009354e+01  1.80735710e+01 -1.41605225e+02 -6.80976974e+01 -1.41605225e+02  1.80506369e+01
  1.20799201e+11 -1.89382483e+01 -3.42411611e+00 -3.42105868e+00 -3.42411611e+00 -6.22086330e+00 -6.71462030e+00 -3.42105868e+00 -6.71462030e+00 -6.22874001e+00  9.95294105e+01 -6.81480569e+01 -6.81448367e+01 -6.81480569e+01  1.80210894e+01 -1.41686707e+02 -6.81448367e+01 -1.41686707e+02  1.79981364e+01
  1.20879121e+11 -1.89554015e+01 -3.42391326e+00 -3.42085494e+00 -3.42391326e+00 -6.22006867e+00 -6.71561143e+00 -3.42085494e+00 -6.71561143e+00 -6.22794700e+00  9.94568828e+01 -6.81951813e+01 -6.81919788e+01 -6.81951813e+01  1.79686317e+01 -1.41768184e+02 -6.81919788e+01 -1.41768184e+02  1.79456598e+01
  1.20959041e+11 -1.89725937e+01 -3.42371078e+00 -3.42065160e+00 -3.42371078e+00 -6.21927635e+00 -6.71660071e+00 -3.42065160e+00 -6.71660071e+00 -6.22715630e+00  9.93842456e+01 -6.82423086e+01 -6.82391238e+01 -6.82423086e+01  1.79161979e+01 -1.41849655e+02 -6.82391238e+01 -1.41849655e+02  1.78932071e+01
  1.21038961e+11 -1.89898249e+01 -3.42350869e+00 -3.42044864e+00 -3.42350869e+00 -6.21848634e+00 -6.71758817e+00 -3.42044864e+00 -6.71758817e+00 -6.22636789e+00  9.93114982e+01 -6.82894386e+01 -6.82862717e+01 -6.82894386e+01  1.78637879e+01 -1.41931120e+02 -6.82862717e+01 -1.41931120e+02  1.78407782e+01
  1.21118881e+11 -1.90070954e+01 -3.42330698e+00 -3.42024607e+00 -3.42330698e+00 -6.21769861e+00 -6.71857379e+00 -3.42024607e+00 -6.71857379e+00 -6.22558178e+00  9.92386400e+01 -6.83365715e+01 -6.83334223e+01 -6.83365715e+01  1.78114017e+01 -1.42012580e+02 -6.83334223e+01 -1.42012580e+02  1.77883731e+01
  1.21198801e+11 -1.90244052e+01 -3.42310566e+00 -3.42004390e+00 -3.42310566e+00 -6.21691318e+00 -6.71955757e+00 -3.42004390e+00 -6.71955757e+00 -6.22479795e+00  9.91656703e+01 -6.83837071e+01 -6.83805758e+01 -6.83837071e+01  1.77590391e+01 -1.42094034e+02 -6.83805758e+01 -1.42094034e+02  1.77359917e+01
  1.21278721e+11 -1.90417546e+01 -3.42290473e+00 -3.41984211e+00 -3.42290473e+00 -6.21613004e+00 -6.72053952e+00 -3.41984211e+00 -6.72053952e+00 -6.22401641e+00  9.90925884e+01 -6.84308456e+01 -6.84277321e+01 -6.84308456e+01  1.77067002e+01 -1.42175483e+02 -6.84277321e+01 -1.42175483e+02  1.76836339e+01
  1.21358641e+11 -1.90591437e+01 -3.42270418e+00 -3.41964071e+00 -3.42270418e+00 -6.21534918e+00 -6.72151964e+00 -3.41964071e+00 -6.72151964e+00 -6.22323715e+00  9.90193937e+01 -6.84779869e+01 -6.84748912e+01 -6.84779869e+01  1.76543849e+01 -1.42256927e+02 -6.84748912e+01 -1.42256927e+02  1.76312998e+01
  1.21438561e+11 -1.90765725e+01 -3.42250402e+00 -3.41943971e+00 -3.42250402e+00 -6.21457060e+00 -6.72249793e+00 -3.41943971e+00 -6.72249793e+00 -6.22246016e+00  9.89460853e+01 -6.85251310e+01 -6.85220531e+01 -6.85251310e+01  1.76020932e+01 -1.42338365e+02 -6.85220531e+01 -1.42338365e+02  1.75789892e+01
  1.21518482e+11 -1.90940413e+01 -3.42230424e+00 -3.41923909e+00 -3.42230424e+00 -6.21379428e+00 -6.72347437e+00 -3.41923909e+00 -6.72347437e+00 -6.22168544e+00  9.88726627e+01 -6.85722778e+01 -6.85692178e+01 -6.85722778e+01  1.75498249e+01 -1.42419797e+02 -6.85692178e+01 -1.42419797e+02  1.75267022e+01
  1.21598402e+11 -1.91115503e+01 -3.42210486e+00 -3.41903888e+00 -3.42210486e+00 -6.21302024e+00 -6.72444899e+00 -3.41903888e+00 -6.72444899e+00 -6.22091299e+00  9.87991251e+01 -6.86194275e+01 -6.86163853e+01 -6.86194275e+01  1.74975801e+01 -1.42501225e+02 -6.86163853e+01 -1.42501225e+02  1.74744385e+01
  1.21678322e+11 -1.91290995e+01 -3.42190587e+00 -3.41883905e+00 -3.42190587e+00 -6.21224846e+00 -6.72542176e+00 -3.41883905e+00 -6.72542176e+00 -6.22014279e+00  9.87254718e+01 -6.86665799e+01 -6.86635556e+01 -6.86665799e+01  1.74453586e+01 -1.42582647e+02 -6.86635557e+01 -1.42582647e+02  1.74221983e+01
  1.21758242e+11 -1.91466891e+01 -3.42170727e+00 -3.41863962e+00 -3.42170727e+00 -6.21147893e+00 -6.72639270e+00 -3.41863962e+00 -6.72639270e+00 -6.21937485e+00  9.86517021e+01 -6.87137351e+01 -6.87107287e+01 -6.87137351e+01  1.73931604e+01 -1.42664063e+02 -6.87107288e+01 -1.42664063e+02  1.73699814e+01
  1.21838162e+11 -1.91643192e+01 -3.42150905e+00 -3.41844059e+00 -3.42150906e+00 -6.21071167e+00 -6.72736181e+00 -3.41844059e+00 -6.72736181e+00 -6.21860916e+00  9.85778153e+01 -6.87608931e+01 -6.87579046e+01 -6.87608931e+01  1.73409855e+01 -1.42745475e+02 -6.87579046e+01 -1.42745475e+02  1.73177877e+01
  1.21918082e+11 -1.91819901e+01 -3.42131124e+00 -3.41824196e+00 -3.42131124e+00 -6.20994664e+00 -6.72832908e+00 -3.41824196e+00 -6.72832908e+00 -6.21784572e+00  9.85038106e+01 -6.88080538e+01 -6.88050833e+01 -6.88080538e+01  1.72888338e+01 -1.42826881e+02 -6.88050833e+01 -1.42826881e+02  1.72656173e+01
  1.21998002e+11 -1.91997018e+01 -3.42111381e+00 -3.41804372e+00 -3.42111381e+00 -6.20918387e+00 -6.72929451e+00 -3.41804372e+00 -6.72929451e+00 -6.21708452e+00  9.84296873e+01 -6.88552173e+01 -6.88522647e+01 -6.88552173e+01  1.72367053e+01 -1.42908281e+02 -6.88522647e+01 -1.42908281e+02  1.72134701e+01
  1.22077922e+11 -1.92174546e+01 -3.42091678e+00 -3.41784588e+00 -3.42091678e+00 -6.20842333e+00 -6.73025811e+00 -3.41784588e+00 -6.73025811e+00 -6.21632556e+00  9.83554447e+01 -6.89023836e+01 -6.88994489e+01 -6.89023836e+01  1.71845998e+01 -1.42989677e+02 -6.88994489e+01 -1.42989677e+02  1.71613459e+01
  1.22157842e+11 -1.92352485e+01 -3.42072014e+00 -3.41764843e+00 -3.42072014e+00 -6.20766503e+00 -6.73121986e+00 -3.41764843e+00 -6.73121986e+00 -6.21556882e+00  9.82810819e+01 -6.89495526e+01 -6.89466359e+01 -6.89495526e+01  1.71325174e+01 -1.43071067e+02 -6.89466359e+01 -1.43071067e+02  1.71092449e+01
  1.22237762e+11 -1.92530838e+01 -3.42052390e+00 -3.41745139e+00 -3.42052390e+00 -6.20690896e+00 -6.73217979e+00 -3.41745139e+00 -6.73217979e+00 -6.21481432e+00  9.82065983e+01 -6.89967243e+01 -6.89938256e+01 -6.89967243e+01  1.70804579e+01 -1.43152452e+02 -6.89938256e+01 -1.43152452e+02  1.70571668e+01
  1.22317682e+11 -1.92709606e+01 -3.42032805e+00 -3.41725475e+00 -3.42032805e+00 -6.20615511e+00 -6.73313787e+00 -3.41725475e+00 -6.73313787e+00 -6.21406203e+00  9.81319931e+01 -6.90438988e+01 -6.90410180e+01 -6.90438988e+01  1.70284214e+01 -1.43233832e+02 -6.90410181e+01 -1.43233832e+02  1.70051116e+01
  1.22397602e+11 -1.92888790e+01 -3.42013260e+00 -3.41705851e+00 -3.42013261e+00 -6.20540349e+00 -6.73409412e+00 -3.41705851e+00 -6.73409412e+00 -6.21331197e+00  9.80572655e+01 -6.90910761e+01 -6.90882133e+01 -6.90910761e+01  1.69764078e+01 -1.43315207e+02 -6.90882133e+01 -1.43315207e+02  1.69530794e+01
  1.22477522e+11 -1.93068392e+01 -3.41993755e+00 -3.41686267e+00 -3.41993755e+00 -6.20465408e+00 -6.73504852e+00 -3.41686267e+00 -6.73504852e+00 -6.21256412e+00  9.79824148e+01 -6.91382560e+01 -6.91354112e+01 -6.91382560e+01  1.69244170e+01 -1.43396577e+02 -6.91354112e+01 -1.43396577e+02  1.69010700e+01
  1.22557443e+11 -1.93248413e+01 -3.41974290e+00 -3.41666724e+00 -3.41974290e+00 -6.20390688e+00 -6.73600109e+00 -3.41666724e+00 -6.73600109e+00 -6.21181847e+00  9.79074401e+01 -6.91854387e+01 -6.91826119e+01 -6.91854387e+01  1.68724489e+01 -1.43477942e+02 -6.91826119e+01 -1.43477942e+02  1.68490833e+01
  1.22637363e+11 -1.93428856e+01 -3.41954864e+00 -3.41647220e+00 -3.41954865e+00 -6.20316189e+00 -6.73695183e+00 -3.41647220e+00 -6.73695183e+00 -6.21107503e+00  9.78323407e+01 -6.92326241e+01 -6.92298153e+01 -6.92326241e+01  1.68205036e+01 -1.43559301e+02 -6.92298153e+01 -1.43559301e+02  1.67971194e+01
  1.22717283e+11 -1.93609722e+01 -3.41935479e+00 -3.41627757e+00 -3.41935479e+00 -6.20241910e+00 -6.73790072e+00 -3.41627757e+00 -6.73790072e+00 -6.21033380e+00  9.77571158e+01 -6.92798122e+01 -6.92770215e+01 -6.92798122e+01  1.67685809e+01 -1.43640656e+02 -6.92770215e+01 -1.43640656e+02  1.67451782e+01
  1.22797203e+11 -1.93791012e+01 -3.41916134e+00 -3.41608335e+00 -3.41916134e+00 -6.20167851e+00 -6.73884777e+00 -3.41608335e+00 -6.73884778e+00 -6.20959475e+00  9.76817646e+01 -6.93270030e+01 -6.93242303e+01 -6.93270030e+01  1.67166808e+01 -1.43722005e+02 -6.93242304e+01 -1.43722005e+02  1.66932595e+01
  1.22877123e+11 -1.93972728e+01 -3.41896828e+00 -3.41588953e+00 -3.41896828e+00 -6.20094012e+00 -6.73979299e+00 -3.41588953e+00 -6.73979299e+00 -6.20885790e+00  9.76062862e+01 -6.93741965e+01 -6.93714419e+01 -6.93741965e+01  1.66648033e+01 -1.43803350e+02 -6.93714419e+01 -1.43803350e+02  1.66413635e+01
  1.22957043e+11 -1.94154872e+01 -3.41877563e+00 -3.41569612e+00 -3.41877563e+00 -6.20020391e+00 -6.74073637e+00 -3.41569612e+00 -6.74073637e+00 -6.20812323e+00  9.75306799e+01 -6.94213928e+01 -6.94186562e+01 -6.94213928e+01  1.66129482e+01 -1.43884690e+02 -6.94186562e+01 -1.43884690e+02  1.65894899e+01
  1.23036963e+11 -1.94337445e+01 -3.41858338e+00 -3.41550312e+00 -3.41858338e+00 -6.19946989e+00 -6.74167791e+00 -3.41550312e+00 -6.74167791e+00 -6.20739074e+00  9.74549448e+01 -6.94685917e+01 -6.94658732e+01 -6.94685917e+01  1.65611156e+01 -1.43966024e+02 -6.94658732e+01 -1.43966024e+02  1.65376388e+01
  1.23116883e+11 -1.94520449e+01 -3.41839154e+00 -3.41531052e+00 -3.41839154e+00 -6.19873805e+00 -6.74261760e+00 -3.41531052e+00 -6.74261760e+00 -6.20666043e+00  9.73790801e+01 -6.95157933e+01 -6.95130929e+01 -6.95157933e+01  1.65093054e+01 -1.44047354e+02 -6.95130929e+01 -1.44047354e+02  1.64858101e+01
  1.23196803e+11 -1.94703886e+01 -3.41820010e+00 -3.41511833e+00 -3.41820010e+00 -6.19800838e+00 -6.74355546e+00 -3.41511833e+00 -6.74355546e+00 -6.20593230e+00  9.73030850e+01 -6.95629976e+01 -6.95603153e+01 -6.95629976e+01  1.64575174e+01 -1.44128679e+02 -6.95603153e+01 -1.44128679e+02  1.64340037e+01
  1.23276723e+11 -1.94887757e+01 -3.41800906e+00 -3.41492655e+00 -3.41800906e+00 -6.19728089e+00 -6.74449148e+00 -3.41492655e+00 -6.74449148e+00 -6.20520633e+00  9.72269586e+01 -6.96102045e+01 -6.96075404e+01 -6.96102045e+01  1.64057518e+01 -1.44209999e+02 -6.96075404e+01 -1.44209999e+02  1.63822196e+01
  1.23356643e+11 -1.95072064e+01 -3.41781843e+00 -3.41473518e+00 -3.41781843e+00 -6.19655556e+00 -6.74542566e+00 -3.41473518e+00 -6.74542566e+00 -6.20448252e+00  9.71507001e+01 -6.96574142e+01 -6.96547682e+01 -6.96574142e+01  1.63540084e+01 -1.44291314e+02 -6.96547682e+01 -1.44291314e+02  1.63304577e+01
  1.23436563e+11 -1.95256808e+01 -3.41762821e+00 -3.41454422e+00 -3.41762821e+00 -6.19583239e+00 -6.74635800e+00 -3.41454422e+00 -6.74635800e+00 -6.20376088e+00  9.70743086e+01 -6.97046265e+01 -6.97019986e+01 -6.97046265e+01  1.63022871e+01 -1.44372625e+02 -6.97019986e+01 -1.44372625e+02  1.62787180e+01
  1.23516484e+11 -1.95441992e+01 -3.41743839e+00 -3.41435368e+00 -3.41743839e+00 -6.19511138e+00 -6.74728850e+00 -3.41435368e+00 -6.74728850e+00 -6.20304139e+00  9.69977832e+01 -6.97518414e+01 -6.97492317e+01 -6.97518414e+01  1.62505879e+01 -1.44453930e+02 -6.97492318e+01 -1.44453930e+02  1.62270004e+01
  1.23596404e+11 -1.95627618e+01 -3.41724898e+00 -3.41416354e+00 -3.41724898e+00 -6.19439253e+00 -6.74821716e+00 -3.41416354e+00 -6.74821716e+00 -6.20232404e+00  9.69211231e+01 -6.97990591e+01 -6.97964675e+01 -6.97990591e+01  1.61989108e+01 -1.44535231e+02 -6.97964675e+01 -1.44535231e+02  1.61753049e+01
  1.23676324e+11 -1.95813685e+01 -3.41705998e+00 -3.41397382e+00 -3.41705998e+00 -6.19367582e+00 -6.74914397e+00 -3.41397382e+00 -6.74914397e+00 -6.20160885e+00  9.68443274e+01 -6.98462793e+01 -6.98437060e+01 -6.98462793e+01  1.61472556e+01 -1.44616527e+02 -6.98437060e+01 -1.44616527e+02  1.61236314e+01
  1.23756244e+11 -1.96000198e+01 -3.41687139e+00 -3.41378451e+00 -3.41687139e+00 -6.19296126e+00 -6.75006895e+00 -3.41378451e+00 -6.75006895e+00 -6.20089579e+00  9.67673952e+01 -6.98935023e+01 -6.98909471e+01 -6.98935023e+01  1.60956224e+01 -1.44697819e+02 -6.98909471e+01 -1.44697819e+02  1.60719798e+01
  1.23836164e+11 -1.96187156e+01 -3.41668320e+00 -3.41359561e+00 -3.41668320e+00 -6.19224884e+00 -6.75099209e+00 -3.41359561e+00 -6.75099209e+00 -6.20018488e+00  9.66903255e+01 -6.99407278e+01 -6.99381909e+01 -6.99407278e+01  1.60440111e+01 -1.44779105e+02 -6.99381909e+01 -1.44779105e+02  1.60203502e+01
  1.23916084e+11 -1.96374563e+01 -3.41649543e+00 -3.41340713e+00 -3.41649543e+00 -6.19153855e+00 -6.75191338e+00 -3.41340713e+00 -6.75191338e+00 -6.19947609e+00  9.66131176e+01 -6.99879560e+01 -6.99854373e+01 -6.99879560e+01  1.59924217e+01 -1.44860387e+02 -6.99854373e+01 -1.44860387e+02  1.59687424e+01
  1.23996004e+11 -1.96562419e+01 -3.41630807e+00 -3.41321907e+00 -3.41630807e+00 -6.19083040e+00 -6.75283283e+00 -3.41321907e+00 -6.75283283e+00 -6.19876944e+00  9.65357704e+01 -7.00351869e+01 -7.00326863e+01 -7.00351869e+01  1.59408540e+01 -1.44941665e+02 -7.00326863e+01 -1.44941665e+02  1.59171563e+01
  1.24075924e+11 -1.96750727e+01 -3.41612112e+00 -3.41303142e+00 -3.41612112e+00 -6.19012437e+00 -6.75375045e+00 -3.41303142e+00 -6.75375045e+00 -6.19806490e+00  9.64582831e+01 -7.00824203e+01 -7.00799380e+01 -7.00824203e+01  1.58893080e+01 -1.45022937e+02 -7.00799380e+01 -1.45022937e+02  1.58655920e+01
  1.24155844e+11 -1.96939488e+01 -3.41593459e+00 -3.41284419e+00 -3.41593459e+00 -6.18942046e+00 -6.75466622e+00 -3.41284419e+00 -6.75466622e+00 -6.19736249e+00  9.63806548e+01 -7.01296564e+01 -7.01271923e+01 -7.01296564e+01  1.58377837e+01 -1.45104206e+02 -7.01271924e+01 -1.45104206e+02  1.58140494e+01
  1.24235764e+11 -1.97128705e+01 -3.41574846e+00 -3.41265738e+00 -3.41574846e+00 -6.18871867e+00 -6.75558015e+00 -3.41265738e+00 -6.75558015e+00 -6.19666219e+00  9.63028844e+01 -7.01768951e+01 -7.01744493e+01 -7.01768951e+01  1.57862809e+01 -1.45185469e+02 -7.01744493e+01 -1.45185469e+02  1.57625285e+01
  1.24315684e+11 -1.97318378e+01 -3.41556276e+00 -3.41247099e+00 -3.41556276e+00 -6.18801900e+00 -6.75649224e+00 -3.41247099e+00 -6.75649224e+00 -6.19596400e+00  9.62249711e+01 -7.02241364e+01 -7.02217089e+01 -7.02241364e+01  1.57347998e+01 -1.45266728e+02 -7.02217089e+01 -1.45266728e+02  1.57110291e+01
  1.24395604e+11 -1.97508509e+01 -3.41537746e+00 -3.41228501e+00 -3.41537746e+00 -6.18732144e+00 -6.75740248e+00 -3.41228501e+00 -6.75740248e+00 -6.19526792e+00  9.61469138e+01 -7.02713803e+01 -7.02689711e+01 -7.02713803e+01  1.56833402e+01 -1.45347983e+02 -7.02689711e+01 -1.45347983e+02  1.56595512e+01
  1.24475524e+11 -1.97699102e+01 -3.41519258e+00 -3.41209946e+00 -3.41519258e+00 -6.18662598e+00 -6.75831089e+00 -3.41209946e+00 -6.75831089e+00 -6.19457395e+00  9.60687117e+01 -7.03186268e+01 -7.03162359e+01 -7.03186268e+01  1.56319020e+01 -1.45429233e+02 -7.03162359e+01 -1.45429233e+02  1.56080947e+01
  1.24555445e+11 -1.97890156e+01 -3.41500812e+00 -3.41191432e+00 -3.41500812e+00 -6.18593262e+00 -6.75921745e+00 -3.41191432e+00 -6.75921745e+00 -6.19388207e+00  9.59903637e+01 -7.03658759e+01 -7.03635033e+01 -7.03658759e+01  1.55804851e+01 -1.45510478e+02 -7.03635033e+01 -1.45510478e+02  1.55566597e+01
  1.24635365e+11 -1.98081675e+01 -3.41482408e+00 -3.41172961e+00 -3.41482408e+00 -6.18524136e+00 -6.76012217e+00 -3.41172961e+00 -6.76012217e+00 -6.19319228e+00  9.59118689e+01 -7.04131276e+01 -7.04107733e+01 -7.04131276e+01  1.55290897e+01 -1.45591719e+02 -7.04107733e+01 -1.45591719e+02  1.55052460e+01
  1.24715285e+11 -1.98273659e+01 -3.41464045e+00 -3.41154532e+00 -3.41464045e+00 -6.18455220e+00 -6.76102505e+00 -3.41154532e+00 -6.76102505e+00 -6.19250458e+00  9.58332263e+01 -7.04603818e+01 -7.04580458e+01 -7.04603818e+01  1.54777155e+01 -1.45672956e+02 -7.04580459e+01 -1.45672956e+02  1.54538537e+01
  1.24795205e+11 -1.98466112e+01 -3.41445724e+00 -3.41136145e+00 -3.41445724e+00 -6.18386512e+00 -6.76192608e+00 -3.41136145e+00 -6.76192608e+00 -6.19181897e+00  9.57544348e+01 -7.05076387e+01 -7.05053210e+01 -7.05076387e+01  1.54263625e+01 -1.45754188e+02 -7.05053210e+01 -1.45754188e+02  1.54024825e+01
  1.24875125e+11 -1.98659034e+01 -3.41427445e+00 -3.41117800e+00 -3.41427445e+00 -6.18318012e+00 -6.76282527e+00 -3.41117800e+00 -6.76282527e+00 -6.19113544e+00  9.56754935e+01 -7.05548981e+01 -7.05525988e+01 -7.05548981e+01  1.53750308e+01 -1.45835416e+02 -7.05525988e+01 -1.45835416e+02  1.53511326e+01
  1.24955045e+11 -1.98852427e+01 -3.41409208e+00 -3.41099498e+00 -3.41409208e+00 -6.18249721e+00 -6.76372262e+00 -3.41099498e+00 -6.76372263e+00 -6.19045398e+00  9.55964014e+01 -7.06021601e+01 -7.05998791e+01 -7.06021601e+01  1.53237201e+01 -1.45916640e+02 -7.05998792e+01 -1.45916640e+02  1.52998038e+01
  1.25034965e+11 -1.99046294e+01 -3.41391013e+00 -3.41081239e+00 -3.41391013e+00 -6.18181637e+00 -6.76461813e+00 -3.41081239e+00 -6.76461813e+00 -6.18977460e+00  9.55171574e+01 -7.06494246e+01 -7.06471621e+01 -7.06494246e+01  1.52724305e+01 -1.45997859e+02 -7.06471621e+01 -1.45997859e+02  1.52484961e+01
