 frequency       s11_db          s22_db          s33_db          s11_deg         s22_deg         s33_deg         s12_db          s21_db          s13_db          s31_db          s12_deg         s21_deg         s13_deg         s31_deg         s23_db          s32_db          s23_deg         s32_deg        
 1.20000000e+11 -1.87688268e+01 -6.22893744e+00 -6.23679783e+00  1.00248808e+02  1.85469914e+01  1.85242285e+01 -3.42616559e+00 -3.42616559e+00 -3.42311713e+00 -3.42311713e+00 -6.76769694e+01 -6.76769694e+01 -6.76735723e+01 -6.76735723e+01 -6.70460835e+00 -6.70460835e+00 -1.40871629e+02 -1.40871629e+02 
 1.20080000e+11 -1.87856151e+01 -6.22811867e+00 -6.23598071e+00  1.00177269e+02  1.84942392e+01  1.84714572e+01 -3.42595874e+00 -3.42595874e+00 -3.42290936e+00 -3.42290936e+00 -6.77241124e+01 -6.77241124e+01 -6.77207329e+01 -6.77207329e+01 -6.70561879e+00 -6.70561879e+00 -1.40953245e+02 -1.40953245e+02 
 1.20160000e+11 -1.88024411e+01 -6.22730226e+00 -6.23516594e+00  1.00105625e+02  1.84415116e+01  1.84187105e+01 -3.42575227e+00 -3.42575227e+00 -3.42270197e+00 -3.42270197e+00 -6.77712583e+01 -6.77712583e+01 -6.77678964e+01 -6.77678964e+01 -6.70662740e+00 -6.70662740e+00 -1.41034854e+02 -1.41034854e+02 
 1.20240000e+11 -1.88193048e+01 -6.22648821e+00 -6.23435353e+00  1.00033878e+02  1.83888083e+01  1.83659882e+01 -3.42554617e+00 -3.42554617e+00 -3.42249496e+00 -3.42249496e+00 -6.78184070e+01 -6.78184070e+01 -6.78150628e+01 -6.78150628e+01 -6.70763417e+00 -6.70763417e+00 -1.41116458e+02 -1.41116457e+02 
 1.20320000e+11 -1.88362064e+01 -6.22567650e+00 -6.23354347e+00  9.99620268e+01  1.83361295e+01  1.83132902e+01 -3.42534044e+00 -3.42534044e+00 -3.42228834e+00 -3.42228834e+00 -6.78655586e+01 -6.78655586e+01 -6.78622321e+01 -6.78622321e+01 -6.70863912e+00 -6.70863912e+00 -1.41198055e+02 -1.41198055e+02 
 1.20400000e+11 -1.88531460e+01 -6.22486714e+00 -6.23273574e+00  9.98900700e+01  1.82834749e+01  1.82606166e+01 -3.42513510e+00 -3.42513510e+00 -3.42208209e+00 -3.42208209e+00 -6.79127131e+01 -6.79127131e+01 -6.79094043e+01 -6.79094043e+01 -6.70964222e+00 -6.70964222e+00 -1.41279647e+02 -1.41279647e+02 
 1.20480000e+11 -1.88701238e+01 -6.22406012e+00 -6.23193035e+00  9.98180073e+01  1.82308446e+01  1.82079673e+01 -3.42493013e+00 -3.42493014e+00 -3.42187623e+00 -3.42187623e+00 -6.79598704e+01 -6.79598704e+01 -6.79565793e+01 -6.79565793e+01 -6.71064349e+00 -6.71064349e+00 -1.41361234e+02 -1.41361234e+02 
 1.20560000e+11 -1.88871399e+01 -6.22325544e+00 -6.23112730e+00  9.97458382e+01  1.81782385e+01  1.81553422e+01 -3.42472555e+00 -3.42472555e+00 -3.42167075e+00 -3.42167075e+00 -6.80070306e+01 -6.80070306e+01 -6.80037572e+01 -6.80037572e+01 -6.71164293e+00 -6.71164293e+00 -1.41442814e+02 -1.41442814e+02 
 1.20640000e+11 -1.89041945e+01 -6.22245308e+00 -6.23032657e+00  9.96735620e+01  1.81256565e+01  1.81027412e+01 -3.42452135e+00 -3.42452135e+00 -3.42146566e+00 -3.42146566e+00 -6.80541936e+01 -6.80541936e+01 -6.80509380e+01 -6.80509380e+01 -6.71264053e+00 -6.71264053e+00 -1.41524389e+02 -1.41524389e+02 
 1.20720000e+11 -1.89212877e+01 -6.22165305e+00 -6.22952816e+00  9.96011781e+01  1.80730986e+01  1.80501643e+01 -3.42431752e+00 -3.42431752e+00 -3.42126096e+00 -3.42126096e+00 -6.81013595e+01 -6.81013595e+01 -6.80981216e+01 -6.80981216e+01 -6.71363630e+00 -6.71363630e+00 -1.41605958e+02 -1.41605958e+02 
 1.20800000e+11 -1.89384196e+01 -6.22085534e+00 -6.22873207e+00  9.95286857e+01  1.80205647e+01  1.79976115e+01 -3.42411408e+00 -3.42411408e+00 -3.42105664e+00 -3.42105664e+00 -6.81485282e+01 -6.81485282e+01 -6.81453081e+01 -6.81453081e+01 -6.71463022e+00 -6.71463022e+00 -1.41687522e+02 -1.41687522e+02 
 1.20880000e+11 -1.89555904e+01 -6.22005994e+00 -6.22793829e+00  9.94560844e+01  1.79680548e+01  1.79450827e+01 -3.42391103e+00 -3.42391103e+00 -3.42085270e+00 -3.42085270e+00 -6.81956997e+01 -6.81956997e+01 -6.81924974e+01 -6.81924974e+01 -6.71562232e+00 -6.71562232e+00 -1.41769080e+02 -1.41769080e+02 
 1.20960000e+11 -1.89728002e+01 -6.21926686e+00 -6.22714682e+00  9.93833733e+01  1.79155689e+01  1.78925778e+01 -3.42370835e+00 -3.42370835e+00 -3.42064916e+00 -3.42064916e+00 -6.82428741e+01 -6.82428741e+01 -6.82396896e+01 -6.82396896e+01 -6.71661257e+00 -6.71661257e+00 -1.41850632e+02 -1.41850632e+02 
 1.21040000e+11 -1.89900492e+01 -6.21847608e+00 -6.22635766e+00  9.93105518e+01  1.78631067e+01  1.78400968e+01 -3.42350606e+00 -3.42350606e+00 -3.42044601e+00 -3.42044601e+00 -6.82900513e+01 -6.82900513e+01 -6.82868846e+01 -6.82868846e+01 -6.71760099e+00 -6.71760099e+00 -1.41932179e+02 -1.41932179e+02 
 1.21120000e+11 -1.90073375e+01 -6.21768760e+00 -6.22557079e+00  9.92376192e+01  1.78106684e+01  1.77876396e+01 -3.42330416e+00 -3.42330416e+00 -3.42024324e+00 -3.42024324e+00 -6.83372314e+01 -6.83372314e+01 -6.83340824e+01 -6.83340824e+01 -6.71858757e+00 -6.71858757e+00 -1.42013720e+02 -1.42013720e+02 
 1.21200000e+11 -1.90246652e+01 -6.21690142e+00 -6.22478621e+00  9.91645749e+01  1.77582539e+01  1.77352061e+01 -3.42310264e+00 -3.42310264e+00 -3.42004087e+00 -3.42004087e+00 -6.83844142e+01 -6.83844142e+01 -6.83812831e+01 -6.83812831e+01 -6.71957232e+00 -6.71957232e+00 -1.42095256e+02 -1.42095256e+02 
 1.21280000e+11 -1.90420325e+01 -6.21611753e+00 -6.22400392e+00  9.90914182e+01  1.77058630e+01  1.76827964e+01 -3.42290151e+00 -3.42290151e+00 -3.41983888e+00 -3.41983888e+00 -6.84315999e+01 -6.84315999e+01 -6.84284866e+01 -6.84284866e+01 -6.72055522e+00 -6.72055522e+00 -1.42176786e+02 -1.42176786e+02 
 1.21360000e+11 -1.90594396e+01 -6.21533592e+00 -6.22322392e+00  9.90181484e+01  1.76534958e+01  1.76304103e+01 -3.42270077e+00 -3.42270077e+00 -3.41963729e+00 -3.41963729e+00 -6.84787883e+01 -6.84787883e+01 -6.84756929e+01 -6.84756929e+01 -6.72153629e+00 -6.72153629e+00 -1.42258311e+02 -1.42258311e+02 
 1.21440000e+11 -1.90768866e+01 -6.21455660e+00 -6.22244619e+00  9.89447647e+01  1.76011522e+01  1.75780479e+01 -3.42250042e+00 -3.42250042e+00 -3.41943609e+00 -3.41943609e+00 -6.85259796e+01 -6.85259796e+01 -6.85229020e+01 -6.85229021e+01 -6.72251552e+00 -6.72251552e+00 -1.42339831e+02 -1.42339831e+02 
 1.21520000e+11 -1.90943736e+01 -6.21377956e+00 -6.22167074e+00  9.88712666e+01  1.75488320e+01  1.75257089e+01 -3.42230045e+00 -3.42230045e+00 -3.41923529e+00 -3.41923529e+00 -6.85731737e+01 -6.85731737e+01 -6.85701140e+01 -6.85701140e+01 -6.72349291e+00 -6.72349291e+00 -1.42421345e+02 -1.42421345e+02 
 1.21600000e+11 -1.91119009e+01 -6.21300478e+00 -6.22089756e+00  9.87976532e+01  1.74965354e+01  1.74733935e+01 -3.42210088e+00 -3.42210088e+00 -3.41903488e+00 -3.41903488e+00 -6.86203705e+01 -6.86203705e+01 -6.86173287e+01 -6.86173287e+01 -6.72446846e+00 -6.72446846e+00 -1.42502853e+02 -1.42502853e+02 
 1.21680000e+11 -1.91294684e+01 -6.21223227e+00 -6.22012664e+00  9.87239239e+01  1.74442622e+01  1.74211015e+01 -3.42190169e+00 -3.42190169e+00 -3.41883486e+00 -3.41883486e+00 -6.86675701e+01 -6.86675701e+01 -6.86645463e+01 -6.86645463e+01 -6.72544217e+00 -6.72544217e+00 -1.42584356e+02 -1.42584356e+02 
 1.21760000e+11 -1.91470765e+01 -6.21146203e+00 -6.21935798e+00  9.86500779e+01  1.73920123e+01  1.73688329e+01 -3.42170290e+00 -3.42170290e+00 -3.41863524e+00 -3.41863524e+00 -6.87147726e+01 -6.87147726e+01 -6.87117666e+01 -6.87117666e+01 -6.72641404e+00 -6.72641404e+00 -1.42665854e+02 -1.42665854e+02 
 1.21840000e+11 -1.91647252e+01 -6.21069404e+00 -6.21859158e+00  9.85761145e+01  1.73397858e+01  1.73165876e+01 -3.42150450e+00 -3.42150450e+00 -3.41843602e+00 -3.41843602e+00 -6.87619778e+01 -6.87619778e+01 -6.87589897e+01 -6.87589897e+01 -6.72738408e+00 -6.72738408e+00 -1.42747347e+02 -1.42747347e+02 
 1.21920000e+11 -1.91824147e+01 -6.20992831e+00 -6.21782743e+00  9.85020330e+01  1.72875824e+01  1.72643655e+01 -3.42130649e+00 -3.42130649e+00 -3.41823719e+00 -3.41823719e+00 -6.88091857e+01 -6.88091857e+01 -6.88062156e+01 -6.88062156e+01 -6.72835227e+00 -6.72835227e+00 -1.42828834e+02 -1.42828834e+02 
 1.22000000e+11 -1.92001452e+01 -6.20916483e+00 -6.21706552e+00  9.84278327e+01  1.72354023e+01  1.72121667e+01 -3.42110888e+00 -3.42110888e+00 -3.41803877e+00 -3.41803877e+00 -6.88563965e+01 -6.88563965e+01 -6.88534443e+01 -6.88534443e+01 -6.72931862e+00 -6.72931862e+00 -1.42910316e+02 -1.42910316e+02 
 1.22080000e+11 -1.92179167e+01 -6.20840359e+00 -6.21630585e+00  9.83535128e+01  1.71832454e+01  1.71599910e+01 -3.42091166e+00 -3.42091166e+00 -3.41784074e+00 -3.41784074e+00 -6.89036099e+01 -6.89036099e+01 -6.89006757e+01 -6.89006757e+01 -6.73028313e+00 -6.73028313e+00 -1.42991793e+02 -1.42991793e+02 
 1.22160000e+11 -1.92357296e+01 -6.20764459e+00 -6.21554842e+00  9.82790725e+01  1.71311115e+01  1.71078384e+01 -3.42071484e+00 -3.42071484e+00 -3.41764311e+00 -3.41764311e+00 -6.89508262e+01 -6.89508262e+01 -6.89479099e+01 -6.89479100e+01 -6.73124581e+00 -6.73124581e+00 -1.43073265e+02 -1.43073265e+02 
 1.22240000e+11 -1.92535838e+01 -6.20688782e+00 -6.21479322e+00  9.82045110e+01  1.70790006e+01  1.70557089e+01 -3.42051841e+00 -3.42051841e+00 -3.41744588e+00 -3.41744588e+00 -6.89980452e+01 -6.89980452e+01 -6.89951469e+01 -6.89951469e+01 -6.73220664e+00 -6.73220664e+00 -1.43154731e+02 -1.43154731e+02 
 1.22320000e+11 -1.92714796e+01 -6.20613328e+00 -6.21404025e+00  9.81298278e+01  1.70269127e+01  1.70036024e+01 -3.42032238e+00 -3.42032238e+00 -3.41724905e+00 -3.41724905e+00 -6.90452669e+01 -6.90452669e+01 -6.90423867e+01 -6.90423867e+01 -6.73316563e+00 -6.73316563e+00 -1.43236192e+02 -1.43236192e+02 
 1.22400000e+11 -1.92894172e+01 -6.20538097e+00 -6.21328950e+00  9.80550218e+01  1.69748478e+01  1.69515188e+01 -3.42012675e+00 -3.42012675e+00 -3.41705263e+00 -3.41705263e+00 -6.90924914e+01 -6.90924914e+01 -6.90896292e+01 -6.90896292e+01 -6.73412277e+00 -6.73412277e+00 -1.43317648e+02 -1.43317648e+02 
 1.22480000e+11 -1.93073966e+01 -6.20463088e+00 -6.21254097e+00  9.79800925e+01  1.69228056e+01  1.68994580e+01 -3.41993151e+00 -3.41993151e+00 -3.41685661e+00 -3.41685661e+00 -6.91397186e+01 -6.91397186e+01 -6.91368744e+01 -6.91368744e+01 -6.73507808e+00 -6.73507808e+00 -1.43399099e+02 -1.43399099e+02 
 1.22560000e+11 -1.93254181e+01 -6.20388301e+00 -6.21179465e+00  9.79050389e+01  1.68707863e+01  1.68474201e+01 -3.41973668e+00 -3.41973668e+00 -3.41666099e+00 -3.41666099e+00 -6.91869486e+01 -6.91869486e+01 -6.91841224e+01 -6.91841224e+01 -6.73603155e+00 -6.73603155e+00 -1.43480545e+02 -1.43480545e+02 
 1.22640000e+11 -1.93434818e+01 -6.20313734e+00 -6.21105054e+00  9.78298603e+01  1.68187898e+01  1.67954050e+01 -3.41954224e+00 -3.41954224e+00 -3.41646577e+00 -3.41646577e+00 -6.92341812e+01 -6.92341812e+01 -6.92313731e+01 -6.92313731e+01 -6.73698317e+00 -6.73698317e+00 -1.43561986e+02 -1.43561986e+02 
 1.22720000e+11 -1.93615879e+01 -6.20239389e+00 -6.21030863e+00  9.77545560e+01  1.67668159e+01  1.67434126e+01 -3.41934821e+00 -3.41934821e+00 -3.41627096e+00 -3.41627096e+00 -6.92814166e+01 -6.92814166e+01 -6.92786265e+01 -6.92786265e+01 -6.73793295e+00 -6.73793295e+00 -1.43643422e+02 -1.43643422e+02 
 1.22800000e+11 -1.93797365e+01 -6.20165263e+00 -6.20956892e+00  9.76791250e+01  1.67148647e+01  1.66914428e+01 -3.41915457e+00 -3.41915457e+00 -3.41607656e+00 -3.41607656e+00 -6.93286547e+01 -6.93286547e+01 -6.93258827e+01 -6.93258827e+01 -6.73888089e+00 -6.73888089e+00 -1.43724853e+02 -1.43724853e+02 
 1.22880000e+11 -1.93979278e+01 -6.20091358e+00 -6.20883141e+00  9.76035666e+01  1.66629361e+01  1.66394956e+01 -3.41896134e+00 -3.41896134e+00 -3.41588256e+00 -3.41588256e+00 -6.93758956e+01 -6.93758956e+01 -6.93731416e+01 -6.93731416e+01 -6.73982698e+00 -6.73982698e+00 -1.43806278e+02 -1.43806278e+02 
 1.22960000e+11 -1.94161619e+01 -6.20017671e+00 -6.20809609e+00  9.75278800e+01  1.66110300e+01  1.65875710e+01 -3.41876851e+00 -3.41876851e+00 -3.41568897e+00 -3.41568897e+00 -6.94231391e+01 -6.94231391e+01 -6.94204032e+01 -6.94204032e+01 -6.74077124e+00 -6.74077124e+00 -1.43887699e+02 -1.43887699e+02 
 1.23040000e+11 -1.94344391e+01 -6.19944204e+00 -6.20736295e+00  9.74520643e+01  1.65591464e+01  1.65356689e+01 -3.41857609e+00 -3.41857609e+00 -3.41549579e+00 -3.41549579e+00 -6.94703853e+01 -6.94703853e+01 -6.94676675e+01 -6.94676675e+01 -6.74171365e+00 -6.74171365e+00 -1.43969115e+02 -1.43969115e+02 
 1.23120000e+11 -1.94527595e+01 -6.19870955e+00 -6.20663200e+00  9.73761188e+01  1.65072852e+01  1.64837892e+01 -3.41838406e+00 -3.41838406e+00 -3.41530302e+00 -3.41530302e+00 -6.95176342e+01 -6.95176342e+01 -6.95149345e+01 -6.95149346e+01 -6.74265421e+00 -6.74265421e+00 -1.44050526e+02 -1.44050526e+02 
 1.23200000e+11 -1.94711232e+01 -6.19797924e+00 -6.20590322e+00  9.73000425e+01  1.64554464e+01  1.64319319e+01 -3.41819245e+00 -3.41819245e+00 -3.41511065e+00 -3.41511065e+00 -6.95648858e+01 -6.95648858e+01 -6.95622043e+01 -6.95622043e+01 -6.74359294e+00 -6.74359294e+00 -1.44131932e+02 -1.44131932e+02 
 1.23280000e+11 -1.94895305e+01 -6.19725111e+00 -6.20517661e+00  9.72238346e+01  1.64036299e+01  1.63800969e+01 -3.41800124e+00 -3.41800124e+00 -3.41491870e+00 -3.41491870e+00 -6.96121401e+01 -6.96121401e+01 -6.96094767e+01 -6.96094767e+01 -6.74452982e+00 -6.74452982e+00 -1.44213333e+02 -1.44213333e+02 
 1.23360000e+11 -1.95079814e+01 -6.19652514e+00 -6.20445217e+00  9.71474943e+01  1.63518356e+01  1.63282842e+01 -3.41781043e+00 -3.41781043e+00 -3.41472715e+00 -3.41472715e+00 -6.96593970e+01 -6.96593970e+01 -6.96567518e+01 -6.96567518e+01 -6.74546486e+00 -6.74546486e+00 -1.44294729e+02 -1.44294729e+02 
 1.23440000e+11 -1.95264762e+01 -6.19580134e+00 -6.20372990e+00  9.70710208e+01  1.63000636e+01  1.62764937e+01 -3.41762004e+00 -3.41762004e+00 -3.41453602e+00 -3.41453602e+00 -6.97066567e+01 -6.97066567e+01 -6.97040296e+01 -6.97040296e+01 -6.74639805e+00 -6.74639805e+00 -1.44376121e+02 -1.44376121e+02 
 1.23520000e+11 -1.95450151e+01 -6.19507971e+00 -6.20300978e+00  9.69944130e+01  1.62483136e+01  1.62247253e+01 -3.41743005e+00 -3.41743005e+00 -3.41434530e+00 -3.41434530e+00 -6.97539190e+01 -6.97539190e+01 -6.97513101e+01 -6.97513101e+01 -6.74732940e+00 -6.74732940e+00 -1.44457508e+02 -1.44457508e+02 
 1.23600000e+11 -1.95635981e+01 -6.19436023e+00 -6.20229181e+00  9.69176702e+01  1.61965858e+01  1.61729791e+01 -3.41724046e+00 -3.41724047e+00 -3.41415499e+00 -3.41415499e+00 -6.98011839e+01 -6.98011839e+01 -6.97985932e+01 -6.97985932e+01 -6.74825890e+00 -6.74825890e+00 -1.44538890e+02 -1.44538890e+02 
 1.23680000e+11 -1.95822255e+01 -6.19364290e+00 -6.20157600e+00  9.68407915e+01  1.61448800e+01  1.61212549e+01 -3.41705129e+00 -3.41705129e+00 -3.41396510e+00 -3.41396510e+00 -6.98484515e+01 -6.98484515e+01 -6.98458790e+01 -6.98458790e+01 -6.74918656e+00 -6.74918656e+00 -1.44620267e+02 -1.44620267e+02 
 1.23760000e+11 -1.96008975e+01 -6.19292773e+00 -6.20086233e+00  9.67637760e+01  1.60931962e+01  1.60695527e+01 -3.41686253e+00 -3.41686253e+00 -3.41377562e+00 -3.41377562e+00 -6.98957218e+01 -6.98957218e+01 -6.98931675e+01 -6.98931675e+01 -6.75011238e+00 -6.75011238e+00 -1.44701639e+02 -1.44701639e+02 
 1.23840000e+11 -1.96196142e+01 -6.19221469e+00 -6.20015081e+00  9.66866227e+01  1.60415343e+01  1.60178725e+01 -3.41667418e+00 -3.41667418e+00 -3.41358656e+00 -3.41358656e+00 -6.99429947e+01 -6.99429947e+01 -6.99404586e+01 -6.99404586e+01 -6.75103635e+00 -6.75103635e+00 -1.44783007e+02 -1.44783007e+02 
 1.23920000e+11 -1.96383758e+01 -6.19150380e+00 -6.19944142e+00  9.66093308e+01  1.59898943e+01  1.59662141e+01 -3.41648624e+00 -3.41648624e+00 -3.41339791e+00 -3.41339791e+00 -6.99902703e+01 -6.99902703e+01 -6.99877524e+01 -6.99877524e+01 -6.75195848e+00 -6.75195848e+00 -1.44864370e+02 -1.44864370e+02 
 1.24000000e+11 -1.96571824e+01 -6.19079504e+00 -6.19873416e+00  9.65318994e+01  1.59382761e+01  1.59145776e+01 -3.41629871e+00 -3.41629871e+00 -3.41320968e+00 -3.41320968e+00 -7.00375485e+01 -7.00375485e+01 -7.00350489e+01 -7.00350489e+01 -6.75287876e+00 -6.75287876e+00 -1.44945728e+02 -1.44945728e+02 
 1.24080000e+11 -1.96760343e+01 -6.19008842e+00 -6.19802903e+00  9.64543275e+01  1.58866797e+01  1.58629628e+01 -3.41611160e+00 -3.41611160e+00 -3.41302186e+00 -3.41302186e+00 -7.00848293e+01 -7.00848293e+01 -7.00823479e+01 -7.00823479e+01 -6.75379720e+00 -6.75379720e+00 -1.45027082e+02 -1.45027082e+02 
 1.24160000e+11 -1.96949316e+01 -6.18938392e+00 -6.19732602e+00  9.63766142e+01  1.58351050e+01  1.58113698e+01 -3.41592490e+00 -3.41592490e+00 -3.41283447e+00 -3.41283447e+00 -7.01321127e+01 -7.01321127e+01 -7.01296496e+01 -7.01296497e+01 -6.75471379e+00 -6.75471379e+00 -1.45108431e+02 -1.45108431e+02 
 1.24240000e+11 -1.97138746e+01 -6.18868154e+00 -6.19662514e+00  9.62987586e+01  1.57835519e+01  1.57597985e+01 -3.41573861e+00 -3.41573861e+00 -3.41264749e+00 -3.41264749e+00 -7.01793988e+01 -7.01793988e+01 -7.01769540e+01 -7.01769540e+01 -6.75562853e+00 -6.75562853e+00 -1.45189776e+02 -1.45189776e+02 
 1.24320000e+11 -1.97328633e+01 -6.18798128e+00 -6.19592636e+00  9.62207596e+01  1.57320204e+01  1.57082487e+01 -3.41555274e+00 -3.41555274e+00 -3.41246093e+00 -3.41246093e+00 -7.02266875e+01 -7.02266875e+01 -7.02242610e+01 -7.02242610e+01 -6.75654144e+00 -6.75654144e+00 -1.45271116e+02 -1.45271116e+02 
 1.24400000e+11 -1.97518980e+01 -6.18728313e+00 -6.19522970e+00  9.61426165e+01  1.56805105e+01  1.56567205e+01 -3.41536728e+00 -3.41536728e+00 -3.41227479e+00 -3.41227479e+00 -7.02739788e+01 -7.02739788e+01 -7.02715706e+01 -7.02715706e+01 -6.75745249e+00 -6.75745249e+00 -1.45352452e+02 -1.45352452e+02 
 1.24480000e+11 -1.97709788e+01 -6.18658710e+00 -6.19453514e+00  9.60643280e+01  1.56290220e+01  1.56052138e+01 -3.41518224e+00 -3.41518224e+00 -3.41208908e+00 -3.41208908e+00 -7.03212727e+01 -7.03212727e+01 -7.03188828e+01 -7.03188828e+01 -6.75836170e+00 -6.75836170e+00 -1.45433783e+02 -1.45433783e+02 
 1.24560000e+11 -1.97901060e+01 -6.18589317e+00 -6.19384269e+00  9.59858934e+01  1.55775550e+01  1.55537286e+01 -3.41499762e+00 -3.41499762e+00 -3.41190378e+00 -3.41190378e+00 -7.03685692e+01 -7.03685692e+01 -7.03661976e+01 -7.03661976e+01 -6.75926907e+00 -6.75926907e+00 -1.45515109e+02 -1.45515109e+02 
 1.24640000e+11 -1.98092797e+01 -6.18520133e+00 -6.19315233e+00  9.59073117e+01  1.55261094e+01  1.55022647e+01 -3.41481342e+00 -3.41481342e+00 -3.41171891e+00 -3.41171891e+00 -7.04158683e+01 -7.04158683e+01 -7.04135150e+01 -7.04135150e+01 -6.76017459e+00 -6.76017459e+00 -1.45596431e+02 -1.45596431e+02 
 1.24720000e+11 -1.98285001e+01 -6.18451160e+00 -6.19246407e+00  9.58285817e+01  1.54746851e+01  1.54508222e+01 -3.41462963e+00 -3.41462963e+00 -3.41153446e+00 -3.41153446e+00 -7.04631699e+01 -7.04631699e+01 -7.04608350e+01 -7.04608350e+01 -6.76107826e+00 -6.76107826e+00 -1.45677749e+02 -1.45677749e+02 
 1.24800000e+11 -1.98477674e+01 -6.18382396e+00 -6.19177790e+00  9.57497026e+01  1.54232820e+01  1.53994010e+01 -3.41444626e+00 -3.41444626e+00 -3.41135043e+00 -3.41135043e+00 -7.05104742e+01 -7.05104742e+01 -7.05081576e+01 -7.05081576e+01 -6.76198008e+00 -6.76198008e+00 -1.45759062e+02 -1.45759062e+02 
 1.24880000e+11 -1.98670817e+01 -6.18313841e+00 -6.19109381e+00  9.56706732e+01  1.53719002e+01  1.53480009e+01 -3.41426331e+00 -3.41426331e+00 -3.41116683e+00 -3.41116683e+00 -7.05577810e+01 -7.05577810e+01 -7.05554828e+01 -7.05554828e+01 -6.76288007e+00 -6.76288007e+00 -1.45840371e+02 -1.45840371e+02 
 1.24960000e+11 -1.98864433e+01 -6.18245494e+00 -6.19041180e+00  9.55914927e+01  1.53205395e+01  1.52966221e+01 -3.41408079e+00 -3.41408079e+00 -3.41098365e+00 -3.41098365e+00 -7.06050904e+01 -7.06050904e+01 -7.06028106e+01 -7.06028106e+01 -6.76377820e+00 -6.76377820e+00 -1.45921676e+02 -1.45921675e+02 
 1.25040000e+11 -1.99058524e+01 -6.18177355e+00 -6.18973187e+00  9.55121599e+01  1.52692000e+01  1.52452644e+01 -3.41389868e+00 -3.41389868e+00 -3.41080090e+00 -3.41080090e+00 -7.06524024e+01 -7.06524024e+01 -7.06501410e+01 -7.06501410e+01 -6.76467449e+00 -6.76467449e+00 -1.46002976e+02 -1.46002976e+02 
