       frequency          s11_db          s22_db          s12_db          s21_db         s11_deg         s22_deg         s12_deg         s21_deg
  1.20000000e+11 -6.60475215e-01 -6.60492714e-01 -4.70578310e+01 -4.70578310e+01  1.69721116e+02  1.69667318e+02 -1.11903520e+02 -1.11903520e+02
  1.20079920e+11 -6.61518239e-01 -6.61541980e-01 -4.70185908e+01 -4.70185908e+01  1.69615270e+02  1.69561282e+02 -1.12061312e+02 -1.12061312e+02
  1.20159840e+11 -6.62565770e-01 -6.62595780e-01 -4.69791781e+01 -4.69791781e+01  1.69509328e+02  1.69455149e+02 -1.12219441e+02 -1.12219441e+02
  1.20239760e+11 -6.63617846e-01 -6.63654155e-01 -4.69395918e+01 -4.69395918e+01  1.69403289e+02  1.69348918e+02 -1.12377910e+02 -1.12377910e+02
  1.20319680e+11 -6.64674507e-01 -6.64717141e-01 -4.68998311e+01 -4.68998311e+01  1.69297152e+02  1.69242588e+02 -1.12536722e+02 -1.12536722e+02
  1.20399600e+11 -6.65735791e-01 -6.65784778e-01 -4.68598948e+01 -4.68598948e+01  1.69190916e+02  1.69136159e+02 -1.12695877e+02 -1.12695877e+02
  1.20479520e+11 -6.66801736e-01 -6.66857105e-01 -4.68197821e+01 -4.68197821e+01  1.69084581e+02  1.69029629e+02 -1.12855378e+02 -1.12855378e+02
  1.20559441e+11 -6.67872384e-01 -6.67934164e-01 -4.67794920e+01 -4.67794919e+01  1.68978146e+02  1.68922999e+02 -1.13015227e+02 -1.13015227e+02
  1.20639361e+11 -6.68947774e-01 -6.69015993e-01 -4.67390234e+01 -4.67390233e+01  1.68871609e+02  1.68816267e+02 -1.13175426e+02 -1.13175426e+02
  1.20719281e+11 -6.70027947e-01 -6.70102634e-01 -4.66983753e+01 -4.66983753e+01  1.68764972e+02  1.68709432e+02 -1.13335976e+02 -1.13335976e+02
  1.20799201e+11 -6.71112945e-01 -6.71194129e-01 -4.66575469e+01 -4.66575469e+01  1.68658231e+02  1.68602494e+02 -1.13496881e+02 -1.13496881e+02
  1.20879121e+11 -6.72202808e-01 -6.72290518e-01 -4.66165370e+01 -4.66165370e+01  1.68551388e+02  1.68495452e+02 -1.13658141e+02 -1.13658141e+02
  1.20959041e+11 -6.73297579e-01 -6.73391846e-01 -4.65753446e+01 -4.65753446e+01  1.68444440e+02  1.68388305e+02 -1.13819758e+02 -1.13819758e+02
  1.21038961e+11 -6.74397302e-01 -6.74498153e-01 -4.65339688e+01 -4.65339688e+01  1.68337388e+02  1.68281053e+02 -1.13981736e+02 -1.13981736e+02
  1.21118881e+11 -6.75502018e-01 -6.75609485e-01 -4.64924085e+01 -4.64924085e+01  1.68230230e+02  1.68173694e+02 -1.14144076e+02 -1.14144076e+02
  1.21198801e+11 -6.76611772e-01 -6.76725884e-01 -4.64506627e+01 -4.64506627e+01  1.68122965e+02  1.68066227e+02 -1.14306780e+02 -1.14306780e+02
  1.21278721e+11 -6.77726608e-01 -6.77847396e-01 -4.64087304e+01 -4.64087303e+01  1.68015594e+02  1.67958653e+02 -1.14469851e+02 -1.14469851e+02
  1.21358641e+11 -6.78846571e-01 -6.78974065e-01 -4.63666104e+01 -4.63666104e+01  1.67908114e+02  1.67850969e+02 -1.14633289e+02 -1.14633289e+02
  1.21438561e+11 -6.79971706e-01 -6.80105937e-01 -4.63243019e+01 -4.63243019e+01  1.67800525e+02  1.67743176e+02 -1.14797098e+02 -1.14797098e+02
  1.21518482e+11 -6.81102059e-01 -6.81243057e-01 -4.62818037e+01 -4.62818036e+01  1.67692827e+02  1.67635273e+02 -1.14961280e+02 -1.14961280e+02
  1.21598402e+11 -6.82237676e-01 -6.82385473e-01 -4.62391147e+01 -4.62391147e+01  1.67585018e+02  1.67527258e+02 -1.15125837e+02 -1.15125837e+02
  1.21678322e+11 -6.83378605e-01 -6.83533232e-01 -4.61962340e+01 -4.61962340e+01  1.67477097e+02  1.67419130e+02 -1.15290771e+02 -1.15290771e+02
  1.21758242e+11 -6.84524893e-01 -6.84686381e-01 -4.61531605e+01 -4.61531604e+01  1.67369065e+02  1.67310889e+02 -1.15456085e+02 -1.15456085e+02
  1.21838162e+11 -6.85676588e-01 -6.85844969e-01 -4.61098930e+01 -4.61098930e+01  1.67260919e+02  1.67202535e+02 -1.15621780e+02 -1.15621780e+02
  1.21918082e+11 -6.86833739e-01 -6.87009045e-01 -4.60664305e+01 -4.60664305e+01  1.67152659e+02  1.67094065e+02 -1.15787859e+02 -1.15787859e+02
  1.21998002e+11 -6.87996396e-01 -6.88178659e-01 -4.60227720e+01 -4.60227720e+01  1.67044284e+02  1.66985480e+02 -1.15954324e+02 -1.15954324e+02
  1.22077922e+11 -6.89164608e-01 -6.89353860e-01 -4.59789163e+01 -4.59789163e+01  1.66935794e+02  1.66876778e+02 -1.16121178e+02 -1.16121178e+02
  1.22157842e+11 -6.90338426e-01 -6.90534700e-01 -4.59348624e+01 -4.59348624e+01  1.66827187e+02  1.66767958e+02 -1.16288423e+02 -1.16288423e+02
  1.22237762e+11 -6.91517901e-01 -6.91721229e-01 -4.58906092e+01 -4.58906092e+01  1.66718462e+02  1.66659020e+02 -1.16456061e+02 -1.16456061e+02
  1.22317682e+11 -6.92703085e-01 -6.92913501e-01 -4.58461555e+01 -4.58461555e+01  1.66609619e+02  1.66549963e+02 -1.16624095e+02 -1.16624095e+02
  1.22397602e+11 -6.93894031e-01 -6.94111568e-01 -4.58015002e+01 -4.58015002e+01  1.66500656e+02  1.66440785e+02 -1.16792527e+02 -1.16792527e+02
  1.22477522e+11 -6.95090792e-01 -6.95315483e-01 -4.57566423e+01 -4.57566423e+01  1.66391573e+02  1.66331486e+02 -1.16961360e+02 -1.16961360e+02
  1.22557443e+11 -6.96293421e-01 -6.96525301e-01 -4.57115806e+01 -4.57115806e+01  1.66282369e+02  1.66222065e+02 -1.17130595e+02 -1.17130595e+02
  1.22637363e+11 -6.97501975e-01 -6.97741076e-01 -4.56663140e+01 -4.56663140e+01  1.66173043e+02  1.66112521e+02 -1.17300236e+02 -1.17300236e+02
  1.22717283e+11 -6.98716507e-01 -6.98962864e-01 -4.56208414e+01 -4.56208414e+01  1.66063594e+02  1.66002853e+02 -1.17470285e+02 -1.17470285e+02
  1.22797203e+11 -6.99937073e-01 -7.00190722e-01 -4.55751616e+01 -4.55751616e+01  1.65954020e+02  1.65893060e+02 -1.17640745e+02 -1.17640745e+02
  1.22877123e+11 -7.01163731e-01 -7.01424705e-01 -4.55292735e+01 -4.55292734e+01  1.65844322e+02  1.65783140e+02 -1.17811617e+02 -1.17811617e+02
  1.22957043e+11 -7.02396539e-01 -7.02664873e-01 -4.54831758e+01 -4.54831758e+01  1.65734497e+02  1.65673094e+02 -1.17982905e+02 -1.17982905e+02
  1.23036963e+11 -7.03635553e-01 -7.03911283e-01 -4.54368676e+01 -4.54368676e+01  1.65624546e+02  1.65562920e+02 -1.18154612e+02 -1.18154612e+02
  1.23116883e+11 -7.04880834e-01 -7.05163994e-01 -4.53903476e+01 -4.53903476e+01  1.65514467e+02  1.65452617e+02 -1.18326740e+02 -1.18326740e+02
  1.23196803e+11 -7.06132441e-01 -7.06423067e-01 -4.53436146e+01 -4.53436146e+01  1.65404258e+02  1.65342184e+02 -1.18499291e+02 -1.18499291e+02
  1.23276723e+11 -7.07390434e-01 -7.07688563e-01 -4.52966675e+01 -4.52966675e+01  1.65293920e+02  1.65231621e+02 -1.18672268e+02 -1.18672268e+02
  1.23356643e+11 -7.08654875e-01 -7.08960543e-01 -4.52495051e+01 -4.52495051e+01  1.65183451e+02  1.65120925e+02 -1.18845675e+02 -1.18845675e+02
  1.23436563e+11 -7.09925827e-01 -7.10239069e-01 -4.52021262e+01 -4.52021262e+01  1.65072850e+02  1.65010096e+02 -1.19019513e+02 -1.19019513e+02
  1.23516484e+11 -7.11203351e-01 -7.11524205e-01 -4.51545296e+01 -4.51545296e+01  1.64962116e+02  1.64899134e+02 -1.19193786e+02 -1.19193786e+02
  1.23596404e+11 -7.12487513e-01 -7.12816016e-01 -4.51067142e+01 -4.51067142e+01  1.64851248e+02  1.64788036e+02 -1.19368496e+02 -1.19368496e+02
  1.23676324e+11 -7.13778376e-01 -7.14114565e-01 -4.50586786e+01 -4.50586786e+01  1.64740245e+02  1.64676802e+02 -1.19543647e+02 -1.19543647e+02
  1.23756244e+11 -7.15076007e-01 -7.15419919e-01 -4.50104218e+01 -4.50104218e+01  1.64629105e+02  1.64565431e+02 -1.19719241e+02 -1.19719241e+02
  1.23836164e+11 -7.16380471e-01 -7.16732145e-01 -4.49619424e+01 -4.49619424e+01  1.64517829e+02  1.64453922e+02 -1.19895280e+02 -1.19895280e+02
  1.23916084e+11 -7.17691837e-01 -7.18051310e-01 -4.49132393e+01 -4.49132393e+01  1.64406414e+02  1.64342274e+02 -1.20071769e+02 -1.20071769e+02
  1.23996004e+11 -7.19010172e-01 -7.19377483e-01 -4.48643113e+01 -4.48643112e+01  1.64294860e+02  1.64230485e+02 -1.20248709e+02 -1.20248709e+02
  1.24075924e+11 -7.20335546e-01 -7.20710733e-01 -4.48151570e+01 -4.48151570e+01  1.64183165e+02  1.64118555e+02 -1.20426105e+02 -1.20426105e+02
  1.24155844e+11 -7.21668029e-01 -7.22051131e-01 -4.47657752e+01 -4.47657752e+01  1.64071329e+02  1.64006482e+02 -1.20603958e+02 -1.20603958e+02
  1.24235764e+11 -7.23007693e-01 -7.23398749e-01 -4.47161648e+01 -4.47161648e+01  1.63959350e+02  1.63894265e+02 -1.20782272e+02 -1.20782272e+02
  1.24315684e+11 -7.24354608e-01 -7.24753659e-01 -4.46663244e+01 -4.46663244e+01  1.63847227e+02  1.63781904e+02 -1.20961051e+02 -1.20961051e+02
  1.24395604e+11 -7.25708849e-01 -7.26115934e-01 -4.46162528e+01 -4.46162528e+01  1.63734960e+02  1.63669396e+02 -1.21140297e+02 -1.21140297e+02
  1.24475524e+11 -7.27070490e-01 -7.27485649e-01 -4.45659487e+01 -4.45659487e+01  1.63622546e+02  1.63556742e+02 -1.21320013e+02 -1.21320013e+02
  1.24555445e+11 -7.28439606e-01 -7.28862879e-01 -4.45154109e+01 -4.45154108e+01  1.63509985e+02  1.63443939e+02 -1.21500202e+02 -1.21500202e+02
  1.24635365e+11 -7.29816273e-01 -7.30247701e-01 -4.44646379e+01 -4.44646379e+01  1.63397276e+02  1.63330987e+02 -1.21680869e+02 -1.21680869e+02
  1.24715285e+11 -7.31200569e-01 -7.31640194e-01 -4.44136287e+01 -4.44136286e+01  1.63284417e+02  1.63217884e+02 -1.21862016e+02 -1.21862016e+02
  1.24795205e+11 -7.32592572e-01 -7.33040435e-01 -4.43623818e+01 -4.43623817e+01  1.63171408e+02  1.63104629e+02 -1.22043646e+02 -1.22043646e+02
  1.24875125e+11 -7.33992362e-01 -7.34448504e-01 -4.43108959e+01 -4.43108959e+01  1.63058246e+02  1.62991221e+02 -1.22225763e+02 -1.22225763e+02
  1.24955045e+11 -7.35400020e-01 -7.35864483e-01 -4.42591698e+01 -4.42591698e+01  1.62944931e+02  1.62877659e+02 -1.22408371e+02 -1.22408371e+02
  1.25034965e+11 -7.36815627e-01 -7.37288454e-01 -4.42072021e+01 -4.42072021e+01  1.62831462e+02  1.62763942e+02 -1.22591472e+02 -1.22591472e+02
  1.25114885e+11 -7.38239267e-01 -7.38720500e-01 -4.41549915e+01 -4.41549915e+01  1.62717838e+02  1.62650067e+02 -1.22775070e+02 -1.22775070e+02
  1.25194805e+11 -7.39671023e-01 -7.40160707e-01 -4.41025366e+01 -4.41025366e+01  1.62604056e+02  1.62536035e+02 -1.22959169e+02 -1.22959169e+02
  1.25274725e+11 -7.41110983e-01 -7.41609159e-01 -4.40498362e+01 -4.40498362e+01  1.62490116e+02  1.62421844e+02 -1.23143772e+02 -1.23143772e+02
  1.25354645e+11 -7.42559231e-01 -7.43065944e-01 -4.39968888e+01 -4.39968888e+01  1.62376017e+02  1.62307492e+02 -1.23328883e+02 -1.23328883e+02
  1.25434565e+11 -7.44015857e-01 -7.44531151e-01 -4.39436932e+01 -4.39436932e+01  1.62261758e+02  1.62192978e+02 -1.23514505e+02 -1.23514505e+02
  1.25514486e+11 -7.45480950e-01 -7.46004869e-01 -4.38902479e+01 -4.38902479e+01  1.62147336e+02  1.62078301e+02 -1.23700643e+02 -1.23700643e+02
  1.25594406e+11 -7.46954600e-01 -7.47487189e-01 -4.38365516e+01 -4.38365516e+01  1.62032751e+02  1.61963460e+02 -1.23887299e+02 -1.23887299e+02
  1.25674326e+11 -7.48436900e-01 -7.48978204e-01 -4.37826028e+01 -4.37826028e+01  1.61918002e+02  1.61848453e+02 -1.24074479e+02 -1.24074479e+02
  1.25754246e+11 -7.49927943e-01 -7.50478008e-01 -4.37284003e+01 -4.37284003e+01  1.61803086e+02  1.61733279e+02 -1.24262185e+02 -1.24262185e+02
  1.25834166e+11 -7.51427823e-01 -7.51986695e-01 -4.36739426e+01 -4.36739426e+01  1.61688003e+02  1.61617936e+02 -1.24450421e+02 -1.24450421e+02
  1.25914086e+11 -7.52936638e-01 -7.53504363e-01 -4.36192283e+01 -4.36192283e+01  1.61572752e+02  1.61502424e+02 -1.24639192e+02 -1.24639192e+02
  1.25994006e+11 -7.54454485e-01 -7.55031109e-01 -4.35642560e+01 -4.35642560e+01  1.61457331e+02  1.61386740e+02 -1.24828501e+02 -1.24828501e+02
  1.26073926e+11 -7.55981463e-01 -7.56567034e-01 -4.35090243e+01 -4.35090243e+01  1.61341738e+02  1.61270884e+02 -1.25018352e+02 -1.25018352e+02
  1.26153846e+11 -7.57517672e-01 -7.58112237e-01 -4.34535318e+01 -4.34535318e+01  1.61225973e+02  1.61154855e+02 -1.25208750e+02 -1.25208750e+02
  1.26233766e+11 -7.59063216e-01 -7.59666823e-01 -4.33977769e+01 -4.33977769e+01  1.61110034e+02  1.61038649e+02 -1.25399698e+02 -1.25399698e+02
  1.26313686e+11 -7.60618198e-01 -7.61230895e-01 -4.33417584e+01 -4.33417584e+01  1.60993918e+02  1.60922267e+02 -1.25591202e+02 -1.25591202e+02
  1.26393606e+11 -7.62182723e-01 -7.62804559e-01 -4.32854747e+01 -4.32854746e+01  1.60877626e+02  1.60805707e+02 -1.25783264e+02 -1.25783264e+02
  1.26473526e+11 -7.63756898e-01 -7.64387922e-01 -4.32289243e+01 -4.32289243e+01  1.60761156e+02  1.60688967e+02 -1.25975890e+02 -1.25975890e+02
  1.26553447e+11 -7.65340833e-01 -7.65981094e-01 -4.31721058e+01 -4.31721058e+01  1.60644505e+02  1.60572046e+02 -1.26169083e+02 -1.26169083e+02
  1.26633367e+11 -7.66934638e-01 -7.67584186e-01 -4.31150178e+01 -4.31150178e+01  1.60527673e+02  1.60454942e+02 -1.26362848e+02 -1.26362848e+02
  1.26713287e+11 -7.68538425e-01 -7.69197310e-01 -4.30576587e+01 -4.30576586e+01  1.60410658e+02  1.60337654e+02 -1.26557190e+02 -1.26557190e+02
  1.26793207e+11 -7.70152307e-01 -7.70820581e-01 -4.30000270e+01 -4.30000270e+01  1.60293459e+02  1.60220180e+02 -1.26752114e+02 -1.26752114e+02
  1.26873127e+11 -7.71776402e-01 -7.72454115e-01 -4.29421213e+01 -4.29421212e+01  1.60176074e+02  1.60102519e+02 -1.26947622e+02 -1.26947622e+02
  1.26953047e+11 -7.73410826e-01 -7.74098029e-01 -4.28839400e+01 -4.28839399e+01  1.60058501e+02  1.59984669e+02 -1.27143721e+02 -1.27143721e+02
  1.27032967e+11 -7.75055698e-01 -7.75752445e-01 -4.28254816e+01 -4.28254815e+01  1.59940739e+02  1.59866629e+02 -1.27340416e+02 -1.27340416e+02
  1.27112887e+11 -7.76711142e-01 -7.77417484e-01 -4.27667445e+01 -4.27667445e+01  1.59822786e+02  1.59748397e+02 -1.27537710e+02 -1.27537710e+02
  1.27192807e+11 -7.78377279e-01 -7.79093270e-01 -4.27077273e+01 -4.27077273e+01  1.59704642e+02  1.59629972e+02 -1.27735608e+02 -1.27735608e+02
  1.27272727e+11 -7.80054235e-01 -7.80779928e-01 -4.26484284e+01 -4.26484284e+01  1.59586303e+02  1.59511351e+02 -1.27934116e+02 -1.27934116e+02
  1.27352647e+11 -7.81742138e-01 -7.82477587e-01 -4.25888463e+01 -4.25888462e+01  1.59467769e+02  1.59392534e+02 -1.28133239e+02 -1.28133239e+02
  1.27432567e+11 -7.83441117e-01 -7.84186376e-01 -4.25289792e+01 -4.25289792e+01  1.59349038e+02  1.59273518e+02 -1.28332981e+02 -1.28332981e+02
  1.27512488e+11 -7.85151304e-01 -7.85906428e-01 -4.24688258e+01 -4.24688258e+01  1.59230108e+02  1.59154302e+02 -1.28533349e+02 -1.28533349e+02
  1.27592408e+11 -7.86872833e-01 -7.87637878e-01 -4.24083844e+01 -4.24083844e+01  1.59110977e+02  1.59034884e+02 -1.28734345e+02 -1.28734345e+02
  1.27672328e+11 -7.88605839e-01 -7.89380861e-01 -4.23476534e+01 -4.23476534e+01  1.58991645e+02  1.58915263e+02 -1.28935978e+02 -1.28935978e+02
  1.27752248e+11 -7.90350462e-01 -7.91135516e-01 -4.22866312e+01 -4.22866311e+01  1.58872108e+02  1.58795436e+02 -1.29138250e+02 -1.29138250e+02
  1.27832168e+11 -7.92106842e-01 -7.92901985e-01 -4.22253161e+01 -4.22253161e+01  1.58752366e+02  1.58675403e+02 -1.29341169e+02 -1.29341169e+02
  1.27912088e+11 -7.93875121e-01 -7.94680412e-01 -4.21637066e+01 -4.21637066e+01  1.58632417e+02  1.58555161e+02 -1.29544738e+02 -1.29544738e+02
  1.27992008e+11 -7.95655445e-01 -7.96470941e-01 -4.21018011e+01 -4.21018011e+01  1.58512258e+02  1.58434708e+02 -1.29748965e+02 -1.29748965e+02
  1.28071928e+11 -7.97447963e-01 -7.98273723e-01 -4.20395978e+01 -4.20395978e+01  1.58391889e+02  1.58314043e+02 -1.29953854e+02 -1.29953854e+02
  1.28151848e+11 -7.99252824e-01 -8.00088906e-01 -4.19770951e+01 -4.19770951e+01  1.58271307e+02  1.58193164e+02 -1.30159412e+02 -1.30159412e+02
  1.28231768e+11 -8.01070182e-01 -8.01916646e-01 -4.19142914e+01 -4.19142914e+01  1.58150510e+02  1.58072069e+02 -1.30365644e+02 -1.30365644e+02
  1.28311688e+11 -8.02900191e-01 -8.03757098e-01 -4.18511850e+01 -4.18511850e+01  1.58029497e+02  1.57950757e+02 -1.30572555e+02 -1.30572555e+02
  1.28391608e+11 -8.04743011e-01 -8.05610420e-01 -4.17877741e+01 -4.17877741e+01  1.57908266e+02  1.57829224e+02 -1.30780153e+02 -1.30780153e+02
  1.28471528e+11 -8.06598803e-01 -8.07476776e-01 -4.17240572e+01 -4.17240572e+01  1.57786814e+02  1.57707470e+02 -1.30988443e+02 -1.30988443e+02
  1.28551449e+11 -8.08467729e-01 -8.09356328e-01 -4.16600324e+01 -4.16600324e+01  1.57665141e+02  1.57585493e+02 -1.31197431e+02 -1.31197431e+02
  1.28631369e+11 -8.10349958e-01 -8.11249245e-01 -4.15956981e+01 -4.15956981e+01  1.57543243e+02  1.57463290e+02 -1.31407123e+02 -1.31407123e+02
  1.28711289e+11 -8.12245658e-01 -8.13155697e-01 -4.15310525e+01 -4.15310525e+01  1.57421120e+02  1.57340860e+02 -1.31617526e+02 -1.31617526e+02
  1.28791209e+11 -8.14155002e-01 -8.15075856e-01 -4.14660939e+01 -4.14660939e+01  1.57298768e+02  1.57218200e+02 -1.31828646e+02 -1.31828646e+02
  1.28871129e+11 -8.16078166e-01 -8.17009899e-01 -4.14008206e+01 -4.14008206e+01  1.57176187e+02  1.57095309e+02 -1.32040490e+02 -1.32040490e+02
  1.28951049e+11 -8.18015329e-01 -8.18958006e-01 -4.13352307e+01 -4.13352307e+01  1.57053374e+02  1.56972185e+02 -1.32253064e+02 -1.32253064e+02
  1.29030969e+11 -8.19966673e-01 -8.20920359e-01 -4.12693225e+01 -4.12693225e+01  1.56930327e+02  1.56848825e+02 -1.32466376e+02 -1.32466376e+02
  1.29110889e+11 -8.21932383e-01 -8.22897144e-01 -4.12030942e+01 -4.12030942e+01  1.56807044e+02  1.56725227e+02 -1.32680431e+02 -1.32680431e+02
  1.29190809e+11 -8.23912647e-01 -8.24888551e-01 -4.11365440e+01 -4.11365440e+01  1.56683523e+02  1.56601390e+02 -1.32895237e+02 -1.32895237e+02
  1.29270729e+11 -8.25907658e-01 -8.26894772e-01 -4.10696701e+01 -4.10696701e+01  1.56559761e+02  1.56477312e+02 -1.33110801e+02 -1.33110801e+02
  1.29350649e+11 -8.27917611e-01 -8.28916003e-01 -4.10024706e+01 -4.10024706e+01  1.56435757e+02  1.56352989e+02 -1.33327129e+02 -1.33327129e+02
  1.29430569e+11 -8.29942706e-01 -8.30952444e-01 -4.09349438e+01 -4.09349438e+01  1.56311509e+02  1.56228420e+02 -1.33544230e+02 -1.33544230e+02
  1.29510490e+11 -8.31983145e-01 -8.33004299e-01 -4.08670878e+01 -4.08670877e+01  1.56187014e+02  1.56103604e+02 -1.33762111e+02 -1.33762111e+02
  1.29590410e+11 -8.34039135e-01 -8.35071775e-01 -4.07989006e+01 -4.07989006e+01  1.56062270e+02  1.55978536e+02 -1.33980779e+02 -1.33980779e+02
  1.29670330e+11 -8.36110886e-01 -8.37155084e-01 -4.07303806e+01 -4.07303805e+01  1.55937275e+02  1.55853216e+02 -1.34200241e+02 -1.34200241e+02
  1.29750250e+11 -8.38198612e-01 -8.39254439e-01 -4.06615256e+01 -4.06615256e+01  1.55812026e+02  1.55727641e+02 -1.34420506e+02 -1.34420506e+02
  1.29830170e+11 -8.40302533e-01 -8.41370060e-01 -4.05923339e+01 -4.05923339e+01  1.55686522e+02  1.55601809e+02 -1.34641581e+02 -1.34641581e+02
  1.29910090e+11 -8.42422870e-01 -8.43502171e-01 -4.05228036e+01 -4.05228036e+01  1.55560760e+02  1.55475717e+02 -1.34863474e+02 -1.34863474e+02
  1.29990010e+11 -8.44559850e-01 -8.45650999e-01 -4.04529327e+01 -4.04529327e+01  1.55434737e+02  1.55349363e+02 -1.35086194e+02 -1.35086194e+02
  1.30069930e+11 -8.46713704e-01 -8.47816775e-01 -4.03827192e+01 -4.03827192e+01  1.55308452e+02  1.55222744e+02 -1.35309748e+02 -1.35309748e+02
  1.30149850e+11 -8.48884667e-01 -8.49999736e-01 -4.03121613e+01 -4.03121613e+01  1.55181901e+02  1.55095859e+02 -1.35534145e+02 -1.35534145e+02
  1.30229770e+11 -8.51072979e-01 -8.52200123e-01 -4.02412569e+01 -4.02412569e+01  1.55055083e+02  1.54968705e+02 -1.35759393e+02 -1.35759393e+02
  1.30309690e+11 -8.53278886e-01 -8.54418180e-01 -4.01700041e+01 -4.01700041e+01  1.54927995e+02  1.54841279e+02 -1.35985501e+02 -1.35985501e+02
  1.30389610e+11 -8.55502636e-01 -8.56654158e-01 -4.00984009e+01 -4.00984008e+01  1.54800635e+02  1.54713579e+02 -1.36212478e+02 -1.36212478e+02
  1.30469530e+11 -8.57744483e-01 -8.58908312e-01 -4.00264452e+01 -4.00264452e+01  1.54672999e+02  1.54585602e+02 -1.36440333e+02 -1.36440333e+02
  1.30549451e+11 -8.60004686e-01 -8.61180902e-01 -3.99541351e+01 -3.99541350e+01  1.54545086e+02  1.54457346e+02 -1.36669074e+02 -1.36669074e+02
  1.30629371e+11 -8.62283510e-01 -8.63472193e-01 -3.98814684e+01 -3.98814684e+01  1.54416893e+02  1.54328809e+02 -1.36898711e+02 -1.36898711e+02
  1.30709291e+11 -8.64581224e-01 -8.65782455e-01 -3.98084433e+01 -3.98084432e+01  1.54288417e+02  1.54199987e+02 -1.37129253e+02 -1.37129253e+02
  1.30789211e+11 -8.66898103e-01 -8.68111964e-01 -3.97350575e+01 -3.97350574e+01  1.54159656e+02  1.54070877e+02 -1.37360710e+02 -1.37360710e+02
